
SetupTitle, HfO2 experiment
PrimitiveTest, I/V Sweep
TestParameter, Context.MainFrame, 4155C
TestParameter, Channel.UnitType, SMU, SMU
TestParameter, Channel.Unit, SMU1:MP, SMU2:MP
TestParameter, Channel.IName, DrainCurrent, SourceCurrent
TestParameter, Channel.VName, DrainVoltage, Ground
TestParameter, Channel.Mode, V, COMMON
TestParameter, Channel.Func, VAR1, CONST
TestParameter, Channel.Index, 
TestParameter, Channel.Time, 
TestParameter, Measurement.Port.Unit, SMU1:MP, SMU2:MP
TestParameter, Measurement.Port.SeriesResistor, NONE, NONE
TestParameter, Measurement.Port.Filter, ON, ON
TestParameter, Measurement.Primary.Locus, Double
TestParameter, Measurement.Primary.Scale, LINEAR
TestParameter, Measurement.Primary.Start, -1
TestParameter, Measurement.Primary.Stop, 1
TestParameter, Measurement.Primary.Step, 0.01
TestParameter, Measurement.Primary.Compliance, 0.1
TestParameter, Measurement.Primary.PowerCompliance, 0
TestParameter, Measurement.Aborting.Condition, CONTINUE AT ANY
TestParameter, Measurement.PostOutput.Value, START
TestParameter, Measurement.PostOutput.Retention, OFF
TestParameter, Measurement.Bias.Source, -1, 0
TestParameter, Measurement.Bias.Compliance, 0.1, 0.1
TestParameter, Measurement.Monitor.Unit, SMU1:MP, SMU2:MP
TestParameter, Measurement.Monitor.Adc, HR ADC, HR ADC
TestParameter, Measurement.Monitor.RangingMode, LIMITED, LIMITED
TestParameter, Measurement.Monitor.RangeBoundary, 1nA, 1nA
TestParameter, Measurement.Monitor.RangeRating, BY FULL RANGE, BY FULL RANGE
TestParameter, Measurement.Monitor.RangeRatingCoeff, 50, 50
TestParameter, Measurement.Timing.Hold, 0
TestParameter, Measurement.Timing.Delay, 0
TestParameter, Measurement.Adc.HighResolution.AutoZero, OFF
TestParameter, Measurement.Adc.HighResolution.Mode, PLC
TestParameter, Measurement.Adc.HighResolution.Coeff, 1
TestParameter, Measurement.Ag16440ASelector.SemiconductorRelay.Channel1, DEFAULT
TestParameter, Measurement.Ag16440ASelector.SemiconductorRelay.Channel3, DEFAULT
TestParameter, Output.Graph.Enabled, true
TestParameter, Output.Graph.AutoScaling, false
TestParameter, Output.Graph.XAxis.Data, DrainVoltage
TestParameter, Output.Graph.XAxis.Scale, Linear
TestParameter, Output.Graph.XAxis.Left, -5
TestParameter, Output.Graph.XAxis.Right, 5
TestParameter, Output.Graph.XAxis.RunTimeAutoScale, true
TestParameter, Output.Graph.YAxis.Data, DrainCurrent
TestParameter, Output.Graph.YAxis.Scale, Linear
TestParameter, Output.Graph.YAxis.Bottom, -0.1
TestParameter, Output.Graph.YAxis.Top, 0.1
TestParameter, Output.Graph.YAxis.Group, 
TestParameter, Output.Graph.YAxis.RunTimeAutoScale, true
TestParameter, Output.List.Data, V3, I3, I1
TestParameter, AutoAnalysis.Interpolation, false
TestParameter, AutoAnalysis.Var2StepCount, 1
TestParameter, AutoAnalysis.Var2StepScript, 
TestParameter, AutoAnalysis.Line1.Enabled, false
TestParameter, AutoAnalysis.Line1.Type, 1
TestParameter, AutoAnalysis.Line1.Fix, True
TestParameter, AutoAnalysis.Line1.YAxis, 0
TestParameter, AutoAnalysis.Line1.Point1.Type, 0
TestParameter, AutoAnalysis.Line1.Point1.XY.X, 
TestParameter, AutoAnalysis.Line1.Point1.XY.Y, 
TestParameter, AutoAnalysis.Line1.Point1.Data.Var, 
TestParameter, AutoAnalysis.Line1.Point1.Data.Condition, 
TestParameter, AutoAnalysis.Line1.Point1.Data.Start, false
TestParameter, AutoAnalysis.Line1.Point1.Data.StartVar, 
TestParameter, AutoAnalysis.Line1.Point1.Data.StartCondition, 
TestParameter, AutoAnalysis.Line1.Point2.Type, 0
TestParameter, AutoAnalysis.Line1.Point2.XY.X, 
TestParameter, AutoAnalysis.Line1.Point2.XY.Y, 
TestParameter, AutoAnalysis.Line1.Point2.Data.Var, 
TestParameter, AutoAnalysis.Line1.Point2.Data.Condition, 
TestParameter, AutoAnalysis.Line1.Point2.Data.Start, false
TestParameter, AutoAnalysis.Line1.Point2.Data.StartVar, 
TestParameter, AutoAnalysis.Line1.Point2.Data.StartCondition, 
TestParameter, AutoAnalysis.Line1.GradientExpr, 0
TestParameter, AutoAnalysis.Line2.Enabled, false
TestParameter, AutoAnalysis.Line2.Type, 1
TestParameter, AutoAnalysis.Line2.Fix, True
TestParameter, AutoAnalysis.Line2.YAxis, 0
TestParameter, AutoAnalysis.Line2.Point1.Type, 0
TestParameter, AutoAnalysis.Line2.Point1.XY.X, 
TestParameter, AutoAnalysis.Line2.Point1.XY.Y, 
TestParameter, AutoAnalysis.Line2.Point1.Data.Var, 
TestParameter, AutoAnalysis.Line2.Point1.Data.Condition, 
TestParameter, AutoAnalysis.Line2.Point1.Data.Start, false
TestParameter, AutoAnalysis.Line2.Point1.Data.StartVar, 
TestParameter, AutoAnalysis.Line2.Point1.Data.StartCondition, 
TestParameter, AutoAnalysis.Line2.Point2.Type, 0
TestParameter, AutoAnalysis.Line2.Point2.XY.X, 
TestParameter, AutoAnalysis.Line2.Point2.XY.Y, 
TestParameter, AutoAnalysis.Line2.Point2.Data.Var, 
TestParameter, AutoAnalysis.Line2.Point2.Data.Condition, 
TestParameter, AutoAnalysis.Line2.Point2.Data.Start, false
TestParameter, AutoAnalysis.Line2.Point2.Data.StartVar, 
TestParameter, AutoAnalysis.Line2.Point2.Data.StartCondition, 
TestParameter, AutoAnalysis.Line2.GradientExpr, 0
TestParameter, AutoAnalysis.Marker.Enabled, false
TestParameter, AutoAnalysis.Marker.Data.Var, 
TestParameter, AutoAnalysis.Marker.Data.Condition, 
TestParameter, AutoAnalysis.Marker.Data.Start, false
TestParameter, AutoAnalysis.Marker.Data.StartVar, 
TestParameter, AutoAnalysis.Marker.Data.StartCondition, 
MetaData, TestRecord.EntryPoint, true
MetaData, TestRecord.RecordTime, 05/19/2022 16:18:10
MetaData, TestRecord.TestTarget, 
MetaData, TestRecord.IterationIndex, 7
MetaData, TestRecord.Preservation, true
MetaData, TestRecord.Flag, 
MetaData, TestRecord.Remarks, 200 300 30 1 2
MetaData, TestRecord.LinkKey, 6f9f66dc-bb27-40cd-af14-36355647fe52
MetaData, TestRecord.Parameters, 
Dimension1, 402, 402, 402, 402, 402
Dimension2, 1, 1, 1, 1, 1
DataName, DrainVoltage, DrainCurrent, V3, I3, I1
DataValue, -1, -0.00017582, , , 
DataValue, -0.9900000000000001, -0.000169946, , , 
DataValue, -0.98000000000000009, -0.000163832, , , 
DataValue, -0.97000000000000008, -0.00015852000000000002, , , 
DataValue, -0.96000000000000008, -0.00015326400000000002, , , 
DataValue, -0.95000000000000007, -0.000147703, , , 
DataValue, -0.94000000000000006, -0.000142404, , , 
DataValue, -0.93, -0.000137107, , , 
DataValue, -0.92, -0.000132007, , , 
DataValue, -0.91, -0.000127104, , , 
DataValue, -0.9, -0.000122092, , , 
DataValue, -0.89, -0.00011728300000000001, , , 
DataValue, -0.88, -0.00011259, , , 
DataValue, -0.87, -0.000107942, , , 
DataValue, -0.86, -0.00010341, , , 
DataValue, -0.85000000000000009, -9.89856E-05, , , 
DataValue, -0.84000000000000008, -9.4729400000000008E-05, , , 
DataValue, -0.83000000000000007, -9.06519E-05, , , 
DataValue, -0.82000000000000006, -8.66825E-05, , , 
DataValue, -0.81, -8.27503E-05, , , 
DataValue, -0.8, -7.89627E-05, , , 
DataValue, -0.79, -7.52832E-05, , , 
DataValue, -0.78, -7.16684E-05, , , 
DataValue, -0.77, -6.8207800000000008E-05, , , 
DataValue, -0.76, -6.48699E-05, , , 
DataValue, -0.75, -6.1631400000000008E-05, , , 
DataValue, -0.74, -5.85069E-05, , , 
DataValue, -0.73, -5.546E-05, , , 
DataValue, -0.72000000000000008, -5.25671E-05, , , 
DataValue, -0.71000000000000008, -4.9765E-05, , , 
DataValue, -0.70000000000000007, -4.70757E-05, , , 
DataValue, -0.69000000000000006, -4.4486E-05, , , 
DataValue, -0.68, -4.19918E-05, , , 
DataValue, -0.67, -3.9583200000000004E-05, , , 
DataValue, -0.66, -3.7309E-05, , , 
DataValue, -0.65, -3.5128E-05, , , 
DataValue, -0.64, -3.30445E-05, , , 
DataValue, -0.63, -3.10399E-05, , , 
DataValue, -0.62, -2.9130700000000002E-05, , , 
DataValue, -0.61, -2.73232E-05, , , 
DataValue, -0.6, -2.5595400000000002E-05, , , 
DataValue, -0.59000000000000008, -2.39553E-05, , , 
DataValue, -0.58000000000000007, -2.2399E-05, , , 
DataValue, -0.57000000000000006, -2.09178E-05, , , 
DataValue, -0.56, -1.95117E-05, , , 
DataValue, -0.55, -1.81805E-05, , , 
DataValue, -0.54, -1.69347E-05, , , 
DataValue, -0.53, -1.57444E-05, , , 
DataValue, -0.52, -1.46346E-05, , , 
DataValue, -0.51, -1.35831E-05, , , 
DataValue, -0.5, -1.25928E-05, , , 
DataValue, -0.49000000000000005, -1.1667400000000001E-05, , , 
DataValue, -0.48000000000000004, -1.07925E-05, , , 
DataValue, -0.47000000000000003, -9.9726200000000014E-06, , , 
DataValue, -0.46, -9.20376E-06, , , 
DataValue, -0.45, -8.48497E-06, , , 
DataValue, -0.44, -7.81962E-06, , , 
DataValue, -0.43, -7.1925100000000009E-06, , , 
DataValue, -0.42000000000000004, -6.61166E-06, , , 
DataValue, -0.41000000000000003, -6.0675600000000007E-06, , , 
DataValue, -0.4, -5.5623000000000009E-06, , , 
DataValue, -0.39, -5.0952200000000005E-06, , , 
DataValue, -0.38, -4.6584900000000005E-06, , , 
DataValue, -0.37, -4.25831E-06, , , 
DataValue, -0.36000000000000004, -3.884E-06, , , 
DataValue, -0.35000000000000003, -3.5404600000000004E-06, , , 
DataValue, -0.34, -3.2202500000000002E-06, , , 
DataValue, -0.33, -2.9257500000000003E-06, , , 
DataValue, -0.32, -2.65657E-06, , , 
DataValue, -0.31, -2.4065100000000004E-06, , , 
DataValue, -0.3, -2.17869E-06, , , 
DataValue, -0.29000000000000004, -1.9690100000000004E-06, , , 
DataValue, -0.28, -1.77568E-06, , , 
DataValue, -0.27, -1.6002100000000002E-06, , , 
DataValue, -0.26, -1.4383200000000002E-06, , , 
DataValue, -0.25, -1.29223E-06, , , 
DataValue, -0.24000000000000002, -1.1577600000000001E-06, , , 
DataValue, -0.23, -1.0355400000000001E-06, , , 
DataValue, -0.22, -9.24742E-07, , , 
DataValue, -0.21000000000000002, -8.23536E-07, , , 
DataValue, -0.2, -7.32696E-07, , , 
DataValue, -0.19, -6.49829E-07, , , 
DataValue, -0.18000000000000002, -5.74946E-07, , , 
DataValue, -0.17, -5.08152E-07, , , 
DataValue, -0.16, -4.47127E-07, , , 
DataValue, -0.15, -3.92764E-07, , , 
DataValue, -0.14, -3.43517E-07, , , 
DataValue, -0.13, -2.99342E-07, , , 
DataValue, -0.12000000000000001, -2.60061E-07, , , 
DataValue, -0.11, -2.24656E-07, , , 
DataValue, -0.1, -1.93118E-07, , , 
DataValue, -0.090000000000000011, -1.64671E-07, , , 
DataValue, -0.08, -1.39329E-07, , , 
DataValue, -0.07, -1.16309E-07, , , 
DataValue, -0.060000000000000005, -9.5615499999999987E-08, , , 
DataValue, -0.05, -7.6750599999999988E-08, , , 
DataValue, -0.04, -5.9367899999999994E-08, , , 
DataValue, -0.030000000000000002, -4.33766E-08, , , 
DataValue, -0.02, -2.8163599999999998E-08, , , 
DataValue, -0.01, -1.3581999999999999E-08, , , 
DataValue, 0, 2.68206E-10, , , 
DataValue, 0.01, 1.4361999999999998E-08, , , 
DataValue, 0.02, 2.8894899999999996E-08, , , 
DataValue, 0.030000000000000002, 4.40038E-08, , , 
DataValue, 0.04, 6.00142E-08, , , 
DataValue, 0.05, 7.66262E-08, , , 
DataValue, 0.060000000000000005, 9.5140299999999993E-08, , , 
DataValue, 0.07, 1.15303E-07, , , 
DataValue, 0.08, 1.38057E-07, , , 
DataValue, 0.090000000000000011, 1.63207E-07, , , 
DataValue, 0.1, 1.90859E-07, , , 
DataValue, 0.11, 2.2195E-07, , , 
DataValue, 0.12000000000000001, 2.56417E-07, , , 
DataValue, 0.13, 2.95189E-07, , , 
DataValue, 0.14, 3.37826E-07, , , 
DataValue, 0.15, 3.85743E-07, , , 
DataValue, 0.16, 4.39088E-07, , , 
DataValue, 0.17, 4.97803E-07, , , 
DataValue, 0.18000000000000002, 5.63365E-07, , , 
DataValue, 0.19, 6.35354E-07, , , 
DataValue, 0.2, 7.15438E-07, , , 
DataValue, 0.21000000000000002, 8.0396499999999993E-07, , , 
DataValue, 0.22, 9.00734E-07, , , 
DataValue, 0.23, 1.008292E-06, , , 
DataValue, 0.24000000000000002, 1.1239600000000001E-06, , , 
DataValue, 0.25, 1.2533300000000001E-06, , , 
DataValue, 0.26, 1.3946400000000002E-06, , , 
DataValue, 0.27, 1.5489500000000002E-06, , , 
DataValue, 0.28, 1.7192400000000003E-06, , , 
DataValue, 0.29000000000000004, 1.9019000000000002E-06, , , 
DataValue, 0.3, 2.1039500000000004E-06, , , 
DataValue, 0.31, 2.3233600000000002E-06, , , 
DataValue, 0.32, 2.5614100000000004E-06, , , 
DataValue, 0.33, 2.8207600000000003E-06, , , 
DataValue, 0.34, 3.10148E-06, , , 
DataValue, 0.35000000000000003, 3.40763E-06, , , 
DataValue, 0.36000000000000004, 3.7382000000000005E-06, , , 
DataValue, 0.37, 4.09359E-06, , , 
DataValue, 0.38, 4.4795700000000007E-06, , , 
DataValue, 0.39, 4.8925900000000005E-06, , , 
DataValue, 0.4, 5.34186E-06, , , 
DataValue, 0.41000000000000003, 5.82579E-06, , , 
DataValue, 0.42000000000000004, 6.34229E-06, , , 
DataValue, 0.43, 6.8999400000000009E-06, , , 
DataValue, 0.44, 7.4937900000000011E-06, , , 
DataValue, 0.45, 8.1351000000000011E-06, , , 
DataValue, 0.46, 8.82196E-06, , , 
DataValue, 0.47000000000000003, 9.54996E-06, , , 
DataValue, 0.48000000000000004, 1.033358E-05, , , 
DataValue, 0.49000000000000005, 1.1163140000000001E-05, , , 
DataValue, 0.5, 1.20495E-05, , , 
DataValue, 0.51, 1.2993800000000001E-05, , , 
DataValue, 0.52, 1.39946E-05, , , 
DataValue, 0.53, 1.5065300000000001E-05, , , 
DataValue, 0.54, 1.61899E-05, , , 
DataValue, 0.55, 1.73915E-05, , , 
DataValue, 0.56, 1.86664E-05, , , 
DataValue, 0.57000000000000006, 2.00031E-05, , , 
DataValue, 0.58000000000000007, 2.1431100000000002E-05, , , 
DataValue, 0.59000000000000008, 2.29141E-05, , , 
DataValue, 0.6, 2.44932E-05, , , 
DataValue, 0.61, 2.61489E-05, , , 
DataValue, 0.62, 2.7885300000000002E-05, , , 
DataValue, 0.63, 2.9723E-05, , , 
DataValue, 0.64, 3.16308E-05, , , 
DataValue, 0.65, 3.36449E-05, , , 
DataValue, 0.66, 3.57595E-05, , , 
DataValue, 0.67, 3.79491E-05, , , 
DataValue, 0.68, 4.02654E-05, , , 
DataValue, 0.69000000000000006, 4.26504E-05, , , 
DataValue, 0.70000000000000007, 4.51504E-05, , , 
DataValue, 0.71000000000000008, 4.7769900000000005E-05, , , 
DataValue, 0.72000000000000008, 5.0476600000000004E-05, , , 
DataValue, 0.73, 5.3293E-05, , , 
DataValue, 0.74, 5.61861E-05, , , 
DataValue, 0.75, 5.92158E-05, , , 
DataValue, 0.76, 6.2346E-05, , , 
DataValue, 0.77, 6.55735E-05, , , 
DataValue, 0.78, 6.89293E-05, , , 
DataValue, 0.79, 7.2351500000000007E-05, , , 
DataValue, 0.8, 7.59919E-05, , , 
DataValue, 0.81, 7.96731E-05, , , 
DataValue, 0.82000000000000006, 8.34968E-05, , , 
DataValue, 0.83000000000000007, 8.74173E-05, , , 
DataValue, 0.84000000000000008, 9.14497E-05, , , 
DataValue, 0.85000000000000009, 9.56439E-05, , , 
DataValue, 0.86, 9.99118E-05, , , 
DataValue, 0.87, 0.00010423870000000001, , , 
DataValue, 0.88, 0.0001087243, , , 
DataValue, 0.89, 0.0001133587, , , 
DataValue, 0.9, 0.00011805700000000001, , , 
DataValue, 0.91, 0.000122831, , , 
DataValue, 0.92, 0.000127751, , , 
DataValue, 0.93, 0.0001326, , , 
DataValue, 0.94000000000000006, 0.00013795700000000002, , , 
DataValue, 0.95000000000000007, 0.000144124, , , 
DataValue, 0.96000000000000008, 0.000149431, , , 
DataValue, 0.97000000000000008, 0.00015493600000000002, , , 
DataValue, 0.98000000000000009, 0.000160784, , , 
DataValue, 0.9900000000000001, 0.000166608, , , 
DataValue, 1, 0.00017273600000000002, , , 
DataValue, 1, 0.00017271700000000002, , , 
DataValue, 0.9900000000000001, 0.00016697, , , 
DataValue, 0.98000000000000009, 0.00016151200000000002, , , 
DataValue, 0.97000000000000008, 0.00015550900000000002, , , 
DataValue, 0.96000000000000008, 0.000150013, , , 
DataValue, 0.95000000000000007, 0.00014457, , , 
DataValue, 0.94000000000000006, 0.00013896900000000002, , , 
DataValue, 0.93, 0.00013374100000000002, , , 
DataValue, 0.92, 0.000128679, , , 
DataValue, 0.91, 0.000123573, , , 
DataValue, 0.9, 0.00011853100000000001, , , 
DataValue, 0.89, 0.00011373600000000001, , , 
DataValue, 0.88, 0.00010917500000000001, , , 
DataValue, 0.87, 0.00010459, , , 
DataValue, 0.86, 0.00010016800000000001, , , 
DataValue, 0.85000000000000009, 9.59814E-05, , , 
DataValue, 0.84000000000000008, 9.18541E-05, , , 
DataValue, 0.83000000000000007, 8.78412E-05, , , 
DataValue, 0.82000000000000006, 8.37997E-05, , , 
DataValue, 0.81, 7.99883E-05, , , 
DataValue, 0.8, 7.6252700000000009E-05, , , 
DataValue, 0.79, 7.26628E-05, , , 
DataValue, 0.78, 6.91856E-05, , , 
DataValue, 0.77, 6.57827E-05, , , 
DataValue, 0.76, 6.2514E-05, , , 
DataValue, 0.75, 5.93786E-05, , , 
DataValue, 0.74, 5.63253E-05, , , 
DataValue, 0.73, 5.34267E-05, , , 
DataValue, 0.72000000000000008, 5.0593E-05, , , 
DataValue, 0.71000000000000008, 4.78977E-05, , , 
DataValue, 0.70000000000000007, 4.5281E-05, , , 
DataValue, 0.69000000000000006, 4.2776E-05, , , 
DataValue, 0.68, 4.03781E-05, , , 
DataValue, 0.67, 3.8071800000000004E-05, , , 
DataValue, 0.66, 3.58736E-05, , , 
DataValue, 0.65, 3.3763800000000004E-05, , , 
DataValue, 0.64, 3.1748E-05, , , 
DataValue, 0.63, 2.98334E-05, , , 
DataValue, 0.62, 2.79987E-05, , , 
DataValue, 0.61, 2.6277E-05, , , 
DataValue, 0.6, 2.46145E-05, , , 
DataValue, 0.59000000000000008, 2.3033500000000002E-05, , , 
DataValue, 0.58000000000000007, 2.1537600000000002E-05, , , 
DataValue, 0.57000000000000006, 2.01152E-05, , , 
DataValue, 0.56, 1.8774900000000002E-05, , , 
DataValue, 0.55, 1.74981E-05, , , 
DataValue, 0.54, 1.6290200000000002E-05, , , 
DataValue, 0.53, 1.51607E-05, , , 
DataValue, 0.52, 1.40881E-05, , , 
DataValue, 0.51, 1.3087400000000001E-05, , , 
DataValue, 0.5, 1.21362E-05, , , 
DataValue, 0.49000000000000005, 1.12431E-05, , , 
DataValue, 0.48000000000000004, 1.04133E-05, , , 
DataValue, 0.47000000000000003, 9.62665E-06, , , 
DataValue, 0.46, 8.8956000000000017E-06, , , 
DataValue, 0.45, 8.20755E-06, , , 
DataValue, 0.44, 7.5647400000000009E-06, , , 
DataValue, 0.43, 6.96769E-06, , , 
DataValue, 0.42000000000000004, 6.4071600000000008E-06, , , 
DataValue, 0.41000000000000003, 5.8882500000000008E-06, , , 
DataValue, 0.4, 5.40244E-06, , , 
DataValue, 0.39, 4.95205E-06, , , 
DataValue, 0.38, 4.53577E-06, , , 
DataValue, 0.37, 4.14636E-06, , , 
DataValue, 0.36000000000000004, 3.7888700000000003E-06, , , 
DataValue, 0.35000000000000003, 3.4557700000000005E-06, , , 
DataValue, 0.34, 3.1471000000000003E-06, , , 
DataValue, 0.33, 2.86408E-06, , , 
DataValue, 0.32, 2.60178E-06, , , 
DataValue, 0.31, 2.3618300000000004E-06, , , 
DataValue, 0.3, 2.1395900000000004E-06, , , 
DataValue, 0.29000000000000004, 1.93508E-06, , , 
DataValue, 0.28, 1.74893E-06, , , 
DataValue, 0.27, 1.5774300000000001E-06, , , 
DataValue, 0.26, 1.4214100000000001E-06, , , 
DataValue, 0.25, 1.2779100000000001E-06, , , 
DataValue, 0.24000000000000002, 1.1465600000000001E-06, , , 
DataValue, 0.23, 1.0276000000000001E-06, , , 
DataValue, 0.22, 9.19495E-07, , , 
DataValue, 0.21000000000000002, 8.21E-07, , , 
DataValue, 0.2, 7.3090699999999994E-07, , , 
DataValue, 0.19, 6.4933E-07, , , 
DataValue, 0.18000000000000002, 5.7595299999999994E-07, , , 
DataValue, 0.17, 5.0914E-07, , , 
DataValue, 0.16, 4.49374E-07, , , 
DataValue, 0.15, 3.94742E-07, , , 
DataValue, 0.14, 3.4576E-07, , , 
DataValue, 0.13, 3.02028E-07, , , 
DataValue, 0.12000000000000001, 2.62357E-07, , , 
DataValue, 0.11, 2.27128E-07, , , 
DataValue, 0.1, 1.95258E-07, , , 
DataValue, 0.090000000000000011, 1.66782E-07, , , 
DataValue, 0.08, 1.41032E-07, , , 
DataValue, 0.07, 1.17781E-07, , , 
DataValue, 0.060000000000000005, 9.70671E-08, , , 
DataValue, 0.05, 7.780259999999999E-08, , , 
DataValue, 0.04, 6.03092E-08, , , 
DataValue, 0.030000000000000002, 4.39229E-08, , , 
DataValue, 0.02, 2.8466299999999998E-08, , , 
DataValue, 0.01, 1.37482E-08, , , 
DataValue, 0, -4.4482E-10, , , 
DataValue, -0.01, -1.4713999999999999E-08, , , 
DataValue, -0.02, -2.9710399999999998E-08, , , 
DataValue, -0.030000000000000002, -4.5162799999999995E-08, , , 
DataValue, -0.04, -6.1393599999999992E-08, , , 
DataValue, -0.05, -7.8569E-08, , , 
DataValue, -0.060000000000000005, -9.7354499999999987E-08, , , 
DataValue, -0.07, -1.18156E-07, , , 
DataValue, -0.08, -1.41493E-07, , , 
DataValue, -0.090000000000000011, -1.6703499999999999E-07, , , 
DataValue, -0.1, -1.95622E-07, , , 
DataValue, -0.11, -2.27228E-07, , , 
DataValue, -0.12000000000000001, -2.6269E-07, , , 
DataValue, -0.13, -3.02093E-07, , , 
DataValue, -0.14, -3.46237E-07, , , 
DataValue, -0.15, -3.95417E-07, , , 
DataValue, -0.16, -4.49747E-07, , , 
DataValue, -0.17, -5.10688E-07, , , 
DataValue, -0.18000000000000002, -5.77265E-07, , , 
DataValue, -0.19, -6.5199899999999993E-07, , , 
DataValue, -0.2, -7.34617E-07, , , 
DataValue, -0.21000000000000002, -8.2534E-07, , , 
DataValue, -0.22, -9.25861E-07, , , 
