
SetupTitle, HfO2 experiment
PrimitiveTest, I/V Sweep
TestParameter, Context.MainFrame, 4155C
TestParameter, Channel.UnitType, SMU, SMU
TestParameter, Channel.Unit, SMU1:MP, SMU2:MP
TestParameter, Channel.IName, DrainCurrent, SourceCurrent
TestParameter, Channel.VName, DrainVoltage, Ground
TestParameter, Channel.Mode, V, COMMON
TestParameter, Channel.Func, VAR1, CONST
TestParameter, Channel.Index, 
TestParameter, Channel.Time, 
TestParameter, Measurement.Port.Unit, SMU1:MP, SMU2:MP
TestParameter, Measurement.Port.SeriesResistor, NONE, NONE
TestParameter, Measurement.Port.Filter, ON, ON
TestParameter, Measurement.Primary.Locus, Double
TestParameter, Measurement.Primary.Scale, LINEAR
TestParameter, Measurement.Primary.Start, -1
TestParameter, Measurement.Primary.Stop, 1
TestParameter, Measurement.Primary.Step, 0.01
TestParameter, Measurement.Primary.Compliance, 0.1
TestParameter, Measurement.Primary.PowerCompliance, 0
TestParameter, Measurement.Aborting.Condition, STOP AT ANY ABNORMAL
TestParameter, Measurement.PostOutput.Value, START
TestParameter, Measurement.PostOutput.Retention, OFF
TestParameter, Measurement.Bias.Source, -1, 0
TestParameter, Measurement.Bias.Compliance, 0.1, 0.1
TestParameter, Measurement.Monitor.Unit, SMU1:MP, SMU2:MP
TestParameter, Measurement.Monitor.Adc, HR ADC, HR ADC
TestParameter, Measurement.Monitor.RangingMode, LIMITED, LIMITED
TestParameter, Measurement.Monitor.RangeBoundary, 1nA, 1nA
TestParameter, Measurement.Monitor.RangeRating, BY FULL RANGE, BY FULL RANGE
TestParameter, Measurement.Monitor.RangeRatingCoeff, 50, 50
TestParameter, Measurement.Timing.Hold, 0
TestParameter, Measurement.Timing.Delay, 0
TestParameter, Measurement.Adc.HighResolution.AutoZero, OFF
TestParameter, Measurement.Adc.HighResolution.Mode, PLC
TestParameter, Measurement.Adc.HighResolution.Coeff, 1
TestParameter, Measurement.Ag16440ASelector.SemiconductorRelay.Channel1, DEFAULT
TestParameter, Measurement.Ag16440ASelector.SemiconductorRelay.Channel3, DEFAULT
TestParameter, Output.Graph.Enabled, true
TestParameter, Output.Graph.AutoScaling, false
TestParameter, Output.Graph.XAxis.Data, DrainVoltage
TestParameter, Output.Graph.XAxis.Scale, Linear
TestParameter, Output.Graph.XAxis.Left, -5
TestParameter, Output.Graph.XAxis.Right, 5
TestParameter, Output.Graph.XAxis.RunTimeAutoScale, true
TestParameter, Output.Graph.YAxis.Data, DrainCurrent
TestParameter, Output.Graph.YAxis.Scale, Linear
TestParameter, Output.Graph.YAxis.Bottom, -0.1
TestParameter, Output.Graph.YAxis.Top, 0.1
TestParameter, Output.Graph.YAxis.Group, 
TestParameter, Output.Graph.YAxis.RunTimeAutoScale, true
TestParameter, Output.List.Data, V3, I3, I1
TestParameter, AutoAnalysis.Interpolation, false
TestParameter, AutoAnalysis.Var2StepCount, 1
TestParameter, AutoAnalysis.Var2StepScript, 
TestParameter, AutoAnalysis.Line1.Enabled, false
TestParameter, AutoAnalysis.Line1.Type, 1
TestParameter, AutoAnalysis.Line1.Fix, True
TestParameter, AutoAnalysis.Line1.YAxis, 0
TestParameter, AutoAnalysis.Line1.Point1.Type, 0
TestParameter, AutoAnalysis.Line1.Point1.XY.X, 
TestParameter, AutoAnalysis.Line1.Point1.XY.Y, 
TestParameter, AutoAnalysis.Line1.Point1.Data.Var, 
TestParameter, AutoAnalysis.Line1.Point1.Data.Condition, 
TestParameter, AutoAnalysis.Line1.Point1.Data.Start, false
TestParameter, AutoAnalysis.Line1.Point1.Data.StartVar, 
TestParameter, AutoAnalysis.Line1.Point1.Data.StartCondition, 
TestParameter, AutoAnalysis.Line1.Point2.Type, 0
TestParameter, AutoAnalysis.Line1.Point2.XY.X, 
TestParameter, AutoAnalysis.Line1.Point2.XY.Y, 
TestParameter, AutoAnalysis.Line1.Point2.Data.Var, 
TestParameter, AutoAnalysis.Line1.Point2.Data.Condition, 
TestParameter, AutoAnalysis.Line1.Point2.Data.Start, false
TestParameter, AutoAnalysis.Line1.Point2.Data.StartVar, 
TestParameter, AutoAnalysis.Line1.Point2.Data.StartCondition, 
TestParameter, AutoAnalysis.Line1.GradientExpr, 0
TestParameter, AutoAnalysis.Line2.Enabled, false
TestParameter, AutoAnalysis.Line2.Type, 1
TestParameter, AutoAnalysis.Line2.Fix, True
TestParameter, AutoAnalysis.Line2.YAxis, 0
TestParameter, AutoAnalysis.Line2.Point1.Type, 0
TestParameter, AutoAnalysis.Line2.Point1.XY.X, 
TestParameter, AutoAnalysis.Line2.Point1.XY.Y, 
TestParameter, AutoAnalysis.Line2.Point1.Data.Var, 
TestParameter, AutoAnalysis.Line2.Point1.Data.Condition, 
TestParameter, AutoAnalysis.Line2.Point1.Data.Start, false
TestParameter, AutoAnalysis.Line2.Point1.Data.StartVar, 
TestParameter, AutoAnalysis.Line2.Point1.Data.StartCondition, 
TestParameter, AutoAnalysis.Line2.Point2.Type, 0
TestParameter, AutoAnalysis.Line2.Point2.XY.X, 
TestParameter, AutoAnalysis.Line2.Point2.XY.Y, 
TestParameter, AutoAnalysis.Line2.Point2.Data.Var, 
TestParameter, AutoAnalysis.Line2.Point2.Data.Condition, 
TestParameter, AutoAnalysis.Line2.Point2.Data.Start, false
TestParameter, AutoAnalysis.Line2.Point2.Data.StartVar, 
TestParameter, AutoAnalysis.Line2.Point2.Data.StartCondition, 
TestParameter, AutoAnalysis.Line2.GradientExpr, 0
TestParameter, AutoAnalysis.Marker.Enabled, false
TestParameter, AutoAnalysis.Marker.Data.Var, 
TestParameter, AutoAnalysis.Marker.Data.Condition, 
TestParameter, AutoAnalysis.Marker.Data.Start, false
TestParameter, AutoAnalysis.Marker.Data.StartVar, 
TestParameter, AutoAnalysis.Marker.Data.StartCondition, 
MetaData, TestRecord.EntryPoint, true
MetaData, TestRecord.RecordTime, 05/10/2022 11:54:44
MetaData, TestRecord.TestTarget, 
MetaData, TestRecord.IterationIndex, 134
MetaData, TestRecord.Preservation, true
MetaData, TestRecord.Flag, 
MetaData, TestRecord.Remarks, 300 300 60 1
MetaData, TestRecord.LinkKey, 6f69a786-e650-4b44-89ad-71bec897f525
MetaData, TestRecord.Parameters, 
Dimension1, 402, 402, 402, 402, 402
Dimension2, 1, 1, 1, 1, 1
DataName, DrainVoltage, DrainCurrent, V3, I3, I1
DataValue, -1, -1.06672E-08, , , 
DataValue, -0.9900000000000001, -9.10081E-09, , , 
DataValue, -0.98000000000000009, -8.27E-09, , , 
DataValue, -0.97000000000000008, -7.64117E-09, , , 
DataValue, -0.96000000000000008, -7.11544E-09, , , 
DataValue, -0.95000000000000007, -6.65954E-09, , , 
DataValue, -0.94000000000000006, -6.25472E-09, , , 
DataValue, -0.93, -5.89521E-09, , , 
DataValue, -0.92, -5.55141E-09, , , 
DataValue, -0.91, -5.2367E-09, , , 
DataValue, -0.9, -4.93905E-09, , , 
DataValue, -0.89, -4.66851E-09, , , 
DataValue, -0.88, -4.40846E-09, , , 
DataValue, -0.87, -4.15806E-09, , , 
DataValue, -0.86, -3.92353E-09, , , 
DataValue, -0.85000000000000009, -3.7037E-09, , , 
DataValue, -0.84000000000000008, -3.49927E-09, , , 
DataValue, -0.83000000000000007, -3.30467E-09, , , 
DataValue, -0.82000000000000006, -3.11565E-09, , , 
DataValue, -0.81, -2.94017E-09, , , 
DataValue, -0.8, -2.77292E-09, , , 
DataValue, -0.79, -2.61299E-09, , , 
DataValue, -0.78, -2.46147E-09, , , 
DataValue, -0.77, -2.31952E-09, , , 
DataValue, -0.76, -2.18448E-09, , , 
DataValue, -0.75, -2.05467E-09, , , 
DataValue, -0.74, -1.93154E-09, , , 
DataValue, -0.73, -1.81542E-09, , , 
DataValue, -0.72000000000000008, -1.70196E-09, , , 
DataValue, -0.71000000000000008, -1.59771E-09, , , 
DataValue, -0.70000000000000007, -1.49641E-09, , , 
DataValue, -0.69000000000000006, -1.40284E-09, , , 
DataValue, -0.68, -1.31248E-09, , , 
DataValue, -0.67, -1.22608E-09, , , 
DataValue, -0.66, -1.14543E-09, , , 
DataValue, -0.65, -1.06906E-09, , , 
DataValue, -0.64, -1.01664E-09, , , 
DataValue, -0.63, -9.8489600000000015E-10, , , 
DataValue, -0.62, -9.65157E-10, , , 
DataValue, -0.61, -9.17254E-10, , , 
DataValue, -0.6, -8.6514400000000011E-10, , , 
DataValue, -0.59000000000000008, -8.1474400000000006E-10, , , 
DataValue, -0.58000000000000007, -7.64698E-10, , , 
DataValue, -0.57000000000000006, -7.2017800000000007E-10, , , 
DataValue, -0.56, -6.7478400000000006E-10, , , 
DataValue, -0.55, -6.3121400000000007E-10, , , 
DataValue, -0.54, -5.9291200000000009E-10, , , 
DataValue, -0.53, -5.53094E-10, , , 
DataValue, -0.52, -5.14968E-10, , , 
DataValue, -0.51, -4.80951E-10, , , 
DataValue, -0.5, -4.47755E-10, , , 
DataValue, -0.49000000000000005, -4.16447E-10, , , 
DataValue, -0.48000000000000004, -3.8728600000000003E-10, , , 
DataValue, -0.47000000000000003, -3.59808E-10, , , 
DataValue, -0.46, -3.34472E-10, , , 
DataValue, -0.45, -3.09746E-10, , , 
DataValue, -0.44, -2.8658400000000004E-10, , , 
DataValue, -0.43, -2.6442900000000003E-10, , , 
DataValue, -0.42000000000000004, -2.43444E-10, , , 
DataValue, -0.41000000000000003, -2.2412500000000001E-10, , , 
DataValue, -0.4, -2.05779E-10, , , 
DataValue, -0.39, -1.88453E-10, , , 
DataValue, -0.38, -1.7231300000000002E-10, , , 
DataValue, -0.37, -1.57145E-10, , , 
DataValue, -0.36000000000000004, -1.4287900000000002E-10, , , 
DataValue, -0.35000000000000003, -1.28016E-10, , , 
DataValue, -0.34, -1.1508200000000001E-10, , , 
DataValue, -0.33, -1.0358800000000001E-10, , , 
DataValue, -0.32, -9.3952000000000013E-11, , , 
DataValue, -0.31, -8.392500000000001E-11, , , 
DataValue, -0.3, -7.3227E-11, , , 
DataValue, -0.29000000000000004, -6.460700000000001E-11, , , 
DataValue, -0.28, -5.5392000000000006E-11, , , 
DataValue, -0.27, -4.7100000000000004E-11, , , 
DataValue, -0.26, -3.9126E-11, , , 
DataValue, -0.25, -3.1993000000000004E-11, , , 
DataValue, -0.24000000000000002, -2.4745E-11, , , 
DataValue, -0.23, -1.7996E-11, , , 
DataValue, -0.22, -1.2027000000000001E-11, , , 
DataValue, -0.21000000000000002, -6.337E-12, , , 
DataValue, -0.2, -6.06E-13, , , 
DataValue, -0.19, 4.0580000000000007E-12, , , 
DataValue, -0.18000000000000002, 8.421E-12, , , 
DataValue, -0.17, 1.3534000000000001E-11, , , 
DataValue, -0.16, 1.7558E-11, , , 
DataValue, -0.15, 2.1777E-11, , , 
DataValue, -0.14, 2.5790000000000002E-11, , , 
DataValue, -0.13, 2.9558E-11, , , 
DataValue, -0.12000000000000001, 3.2507E-11, , , 
DataValue, -0.11, 3.6199000000000006E-11, , , 
DataValue, -0.1, 3.9094000000000006E-11, , , 
DataValue, -0.090000000000000011, 4.2327000000000004E-11, , , 
DataValue, -0.08, 4.5215E-11, , , 
DataValue, -0.07, 4.7947000000000006E-11, , , 
DataValue, -0.060000000000000005, 5.0705E-11, , , 
DataValue, -0.05, 5.3496000000000007E-11, , , 
DataValue, -0.04, 5.608E-11, , , 
DataValue, -0.030000000000000002, 5.9216000000000008E-11, , , 
DataValue, -0.02, 6.153200000000001E-11, , , 
DataValue, -0.01, 6.382800000000001E-11, , , 
DataValue, 0, 6.6180000000000011E-11, , , 
DataValue, 0.01, 6.8887000000000007E-11, , , 
DataValue, 0.02, 7.1290000000000007E-11, , , 
DataValue, 0.030000000000000002, 7.3893E-11, , , 
DataValue, 0.04, 7.624E-11, , , 
DataValue, 0.05, 7.8562E-11, , , 
DataValue, 0.060000000000000005, 8.120100000000001E-11, , , 
DataValue, 0.07, 8.4861E-11, , , 
DataValue, 0.08, 8.780000000000001E-11, , , 
DataValue, 0.090000000000000011, 9.0721000000000007E-11, , , 
DataValue, 0.1, 9.4147E-11, , , 
DataValue, 0.11, 9.8112E-11, , , 
DataValue, 0.12000000000000001, 1.0185100000000001E-10, , , 
DataValue, 0.13, 1.06153E-10, , , 
DataValue, 0.14, 1.09498E-10, , , 
DataValue, 0.15, 1.13498E-10, , , 
DataValue, 0.16, 1.17834E-10, , , 
DataValue, 0.17, 1.2218400000000002E-10, , , 
DataValue, 0.18000000000000002, 1.2712000000000002E-10, , , 
DataValue, 0.19, 1.3235000000000001E-10, , , 
DataValue, 0.2, 1.37339E-10, , , 
DataValue, 0.21000000000000002, 1.42973E-10, , , 
DataValue, 0.22, 1.4899300000000002E-10, , , 
DataValue, 0.23, 1.55784E-10, , , 
DataValue, 0.24000000000000002, 1.61981E-10, , , 
DataValue, 0.25, 1.6956200000000002E-10, , , 
DataValue, 0.26, 1.77304E-10, , , 
DataValue, 0.27, 1.85208E-10, , , 
DataValue, 0.28, 1.9411300000000002E-10, , , 
DataValue, 0.29000000000000004, 2.03513E-10, , , 
DataValue, 0.3, 2.1333900000000003E-10, , , 
DataValue, 0.31, 2.2374100000000003E-10, , , 
DataValue, 0.32, 2.3473000000000003E-10, , , 
DataValue, 0.33, 2.47214E-10, , , 
DataValue, 0.34, 2.60105E-10, , , 
DataValue, 0.35000000000000003, 2.73273E-10, , , 
DataValue, 0.36000000000000004, 2.8784E-10, , , 
DataValue, 0.37, 3.02773E-10, , , 
DataValue, 0.38, 3.1941000000000004E-10, , , 
DataValue, 0.39, 3.3652500000000003E-10, , , 
DataValue, 0.4, 3.5527500000000005E-10, , , 
DataValue, 0.41000000000000003, 3.7566800000000004E-10, , , 
DataValue, 0.42000000000000004, 3.96397E-10, , , 
DataValue, 0.43, 4.1849400000000005E-10, , , 
DataValue, 0.44, 4.4171400000000005E-10, , , 
DataValue, 0.45, 4.6711200000000007E-10, , , 
DataValue, 0.46, 4.9297700000000006E-10, , , 
DataValue, 0.47000000000000003, 5.2166200000000005E-10, , , 
DataValue, 0.48000000000000004, 5.51394E-10, , , 
DataValue, 0.49000000000000005, 5.8279500000000005E-10, , , 
DataValue, 0.5, 6.1622200000000009E-10, , , 
DataValue, 0.51, 6.5264400000000007E-10, , , 
DataValue, 0.52, 6.89027E-10, , , 
DataValue, 0.53, 7.29394E-10, , , 
DataValue, 0.54, 7.71689E-10, , , 
DataValue, 0.55, 8.15114E-10, , , 
DataValue, 0.56, 8.6219100000000011E-10, , , 
DataValue, 0.57000000000000006, 9.1084E-10, , , 
DataValue, 0.58000000000000007, 9.6337700000000012E-10, , , 
DataValue, 0.59000000000000008, 1.02722E-09, , , 
DataValue, 0.6, 1.14105E-09, , , 
DataValue, 0.61, 1.22885E-09, , , 
DataValue, 0.62, 1.31086E-09, , , 
DataValue, 0.63, 1.39453E-09, , , 
DataValue, 0.64, 1.47915E-09, , , 
DataValue, 0.65, 1.56469E-09, , , 
DataValue, 0.66, 1.65851E-09, , , 
DataValue, 0.67, 1.75443E-09, , , 
DataValue, 0.68, 1.85051E-09, , , 
DataValue, 0.69000000000000006, 1.95194E-09, , , 
DataValue, 0.70000000000000007, 2.06208E-09, , , 
DataValue, 0.71000000000000008, 2.17385E-09, , , 
DataValue, 0.72000000000000008, 2.29027E-09, , , 
DataValue, 0.73, 2.30656E-09, , , 
DataValue, 0.74, 2.39951E-09, , , 
DataValue, 0.75, 2.51303E-09, , , 
DataValue, 0.76, 2.63268E-09, , , 
DataValue, 0.77, 2.76493E-09, , , 
DataValue, 0.78, 2.90054E-09, , , 
DataValue, 0.79, 3.04653E-09, , , 
DataValue, 0.8, 3.20062E-09, , , 
DataValue, 0.81, 3.36042E-09, , , 
DataValue, 0.82000000000000006, 3.52816E-09, , , 
DataValue, 0.83000000000000007, 3.70608E-09, , , 
DataValue, 0.84000000000000008, 3.88827E-09, , , 
DataValue, 0.85000000000000009, 4.07518E-09, , , 
DataValue, 0.86, 4.28361E-09, , , 
DataValue, 0.87, 4.49881E-09, , , 
DataValue, 0.88, 4.71341E-09, , , 
DataValue, 0.89, 4.93339E-09, , , 
DataValue, 0.9, 5.17586E-09, , , 
DataValue, 0.91, 5.42551E-09, , , 
DataValue, 0.92, 5.69127E-09, , , 
DataValue, 0.93, 5.9609E-09, , , 
DataValue, 0.94000000000000006, 6.24344E-09, , , 
DataValue, 0.95000000000000007, 6.53872E-09, , , 
DataValue, 0.96000000000000008, 6.8458E-09, , , 
DataValue, 0.97000000000000008, 7.16991E-09, , , 
DataValue, 0.98000000000000009, 7.50079E-09, , , 
DataValue, 0.9900000000000001, 7.84954E-09, , , 
DataValue, 1, 8.20034E-09, , , 
DataValue, 1, 8.19816E-09, , , 
DataValue, 0.9900000000000001, 7.73296E-09, , , 
DataValue, 0.98000000000000009, 7.31105E-09, , , 
DataValue, 0.97000000000000008, 6.92866E-09, , , 
DataValue, 0.96000000000000008, 6.56023E-09, , , 
DataValue, 0.95000000000000007, 6.22283E-09, , , 
DataValue, 0.94000000000000006, 5.89641E-09, , , 
DataValue, 0.93, 5.59085E-09, , , 
DataValue, 0.92, 5.28834E-09, , , 
DataValue, 0.91, 5.00962E-09, , , 
DataValue, 0.9, 4.74255E-09, , , 
DataValue, 0.89, 4.49204E-09, , , 
DataValue, 0.88, 4.24804E-09, , , 
DataValue, 0.87, 4.02111E-09, , , 
DataValue, 0.86, 3.79838E-09, , , 
DataValue, 0.85000000000000009, 3.59129E-09, , , 
DataValue, 0.84000000000000008, 3.3877E-09, , , 
DataValue, 0.83000000000000007, 3.20555E-09, , , 
DataValue, 0.82000000000000006, 3.02242E-09, , , 
DataValue, 0.81, 2.84943E-09, , , 
DataValue, 0.8, 2.6883E-09, , , 
DataValue, 0.79, 2.53307E-09, , , 
DataValue, 0.78, 2.38728E-09, , , 
DataValue, 0.77, 2.24152E-09, , , 
DataValue, 0.76, 2.111E-09, , , 
DataValue, 0.75, 1.98532E-09, , , 
DataValue, 0.74, 1.86468E-09, , , 
DataValue, 0.73, 1.74885E-09, , , 
DataValue, 0.72000000000000008, 1.63681E-09, , , 
DataValue, 0.71000000000000008, 1.53386E-09, , , 
DataValue, 0.70000000000000007, 1.43149E-09, , , 
DataValue, 0.69000000000000006, 1.33996E-09, , , 
DataValue, 0.68, 1.25359E-09, , , 
DataValue, 0.67, 1.166E-09, , , 
DataValue, 0.66, 1.08844E-09, , , 
DataValue, 0.65, 1.02286E-09, , , 
DataValue, 0.64, 1.00108E-09, , , 
DataValue, 0.63, 9.9032000000000015E-10, , , 
DataValue, 0.62, 9.4636100000000014E-10, , , 
DataValue, 0.61, 8.9615000000000005E-10, , , 
DataValue, 0.6, 8.4475800000000007E-10, , , 
DataValue, 0.59000000000000008, 7.9425E-10, , , 
DataValue, 0.58000000000000007, 7.46458E-10, , , 
DataValue, 0.57000000000000006, 6.99862E-10, , , 
DataValue, 0.56, 6.5585200000000008E-10, , , 
DataValue, 0.55, 6.1399100000000008E-10, , , 
DataValue, 0.54, 5.723740000000001E-10, , , 
DataValue, 0.53, 5.34954E-10, , , 
DataValue, 0.52, 4.98868E-10, , , 
DataValue, 0.51, 4.6472300000000005E-10, , , 
DataValue, 0.5, 4.3288E-10, , , 
DataValue, 0.49000000000000005, 4.01566E-10, , , 
DataValue, 0.48000000000000004, 3.7410200000000005E-10, , , 
DataValue, 0.47000000000000003, 3.4647600000000005E-10, , , 
DataValue, 0.46, 3.20601E-10, , , 
DataValue, 0.45, 2.9569000000000004E-10, , , 
DataValue, 0.44, 2.7296E-10, , , 
DataValue, 0.43, 2.5163500000000003E-10, , , 
DataValue, 0.42000000000000004, 2.3135100000000002E-10, , , 
DataValue, 0.41000000000000003, 2.1271400000000002E-10, , , 
DataValue, 0.4, 1.94353E-10, , , 
DataValue, 0.39, 1.7688900000000001E-10, , , 
DataValue, 0.38, 1.6106700000000002E-10, , , 
DataValue, 0.37, 1.45818E-10, , , 
DataValue, 0.36000000000000004, 1.3198600000000002E-10, , , 
DataValue, 0.35000000000000003, 1.18597E-10, , , 
DataValue, 0.34, 1.0615500000000001E-10, , , 
DataValue, 0.33, 9.5994E-11, , , 
DataValue, 0.32, 8.4756E-11, , , 
DataValue, 0.31, 7.460200000000001E-11, , , 
DataValue, 0.3, 6.4314E-11, , , 
DataValue, 0.29000000000000004, 5.5620000000000004E-11, , , 
DataValue, 0.28, 4.6424E-11, , , 
DataValue, 0.27, 3.8394000000000005E-11, , , 
DataValue, 0.26, 3.0784000000000005E-11, , , 
DataValue, 0.25, 2.3292000000000002E-11, , , 
DataValue, 0.24000000000000002, 1.6798000000000002E-11, , , 
DataValue, 0.23, 1.0469000000000002E-11, , , 
DataValue, 0.22, 4.186E-12, , , 
DataValue, 0.21000000000000002, -2.039E-12, , , 
DataValue, 0.2, -7.752E-12, , , 
DataValue, 0.19, -1.2238E-11, , , 
DataValue, 0.18000000000000002, -1.6774000000000003E-11, , , 
DataValue, 0.17, -2.1563E-11, , , 
DataValue, 0.16, -2.5959E-11, , , 
DataValue, 0.15, -3.0307000000000003E-11, , , 
DataValue, 0.14, -3.376E-11, , , 
DataValue, 0.13, -3.7445E-11, , , 
DataValue, 0.12000000000000001, -4.0393E-11, , , 
DataValue, 0.11, -4.3915000000000004E-11, , , 
DataValue, 0.1, -4.7669000000000006E-11, , , 
DataValue, 0.090000000000000011, -5.0686000000000006E-11, , , 
DataValue, 0.08, -5.3811E-11, , , 
DataValue, 0.07, -5.6791000000000007E-11, , , 
DataValue, 0.060000000000000005, -5.8731000000000009E-11, , , 
DataValue, 0.05, -6.1788000000000009E-11, , , 
DataValue, 0.04, -6.4305E-11, , , 
DataValue, 0.030000000000000002, -6.7009E-11, , , 
DataValue, 0.02, -6.9946E-11, , , 
DataValue, 0.01, -7.2249E-11, , , 
DataValue, 0, -7.4588000000000007E-11, , , 
DataValue, -0.01, -7.6824000000000008E-11, , , 
DataValue, -0.02, -7.9145E-11, , , 
DataValue, -0.030000000000000002, -8.1185E-11, , , 
DataValue, -0.04, -8.3637000000000008E-11, , , 
DataValue, -0.05, -8.6247000000000012E-11, , , 
DataValue, -0.060000000000000005, -8.959600000000001E-11, , , 
DataValue, -0.07, -9.3614000000000009E-11, , , 
DataValue, -0.08, -9.6734000000000007E-11, , , 
DataValue, -0.090000000000000011, -1.0002000000000001E-10, , , 
DataValue, -0.1, -1.0342200000000001E-10, , , 
DataValue, -0.11, -1.0653100000000001E-10, , , 
DataValue, -0.12000000000000001, -1.09909E-10, , , 
DataValue, -0.13, -1.1376400000000001E-10, , , 
DataValue, -0.14, -1.17385E-10, , , 
DataValue, -0.15, -1.21329E-10, , , 
DataValue, -0.16, -1.2540200000000002E-10, , , 
DataValue, -0.17, -1.2910200000000002E-10, , , 
DataValue, -0.18000000000000002, -1.33127E-10, , , 
DataValue, -0.19, -1.38661E-10, , , 
DataValue, -0.2, -1.4377100000000002E-10, , , 
DataValue, -0.21000000000000002, -1.4878E-10, , , 
