
SetupTitle, HfO2 experiment
PrimitiveTest, I/V Sweep
TestParameter, Context.MainFrame, 4155C
TestParameter, Channel.UnitType, SMU, SMU
TestParameter, Channel.Unit, SMU1:MP, SMU2:MP
TestParameter, Channel.IName, DrainCurrent, SourceCurrent
TestParameter, Channel.VName, DrainVoltage, Ground
TestParameter, Channel.Mode, V, COMMON
TestParameter, Channel.Func, VAR1, CONST
TestParameter, Channel.Index, 
TestParameter, Channel.Time, 
TestParameter, Measurement.Port.Unit, SMU1:MP, SMU2:MP
TestParameter, Measurement.Port.SeriesResistor, NONE, NONE
TestParameter, Measurement.Port.Filter, ON, ON
TestParameter, Measurement.Primary.Locus, Double
TestParameter, Measurement.Primary.Scale, LINEAR
TestParameter, Measurement.Primary.Start, -2
TestParameter, Measurement.Primary.Stop, 2
TestParameter, Measurement.Primary.Step, 0.02
TestParameter, Measurement.Primary.Compliance, 0.1
TestParameter, Measurement.Primary.PowerCompliance, 0
TestParameter, Measurement.Aborting.Condition, STOP AT ANY ABNORMAL
TestParameter, Measurement.PostOutput.Value, START
TestParameter, Measurement.PostOutput.Retention, OFF
TestParameter, Measurement.Bias.Source, -2, 0
TestParameter, Measurement.Bias.Compliance, 0.1, 0.1
TestParameter, Measurement.Monitor.Unit, SMU1:MP, SMU2:MP
TestParameter, Measurement.Monitor.Adc, HR ADC, HR ADC
TestParameter, Measurement.Monitor.RangingMode, LIMITED, LIMITED
TestParameter, Measurement.Monitor.RangeBoundary, 1nA, 1nA
TestParameter, Measurement.Monitor.RangeRating, BY FULL RANGE, BY FULL RANGE
TestParameter, Measurement.Monitor.RangeRatingCoeff, 50, 50
TestParameter, Measurement.Timing.Hold, 0
TestParameter, Measurement.Timing.Delay, 0
TestParameter, Measurement.Adc.HighResolution.AutoZero, OFF
TestParameter, Measurement.Adc.HighResolution.Mode, PLC
TestParameter, Measurement.Adc.HighResolution.Coeff, 1
TestParameter, Measurement.Ag16440ASelector.SemiconductorRelay.Channel1, DEFAULT
TestParameter, Measurement.Ag16440ASelector.SemiconductorRelay.Channel3, DEFAULT
TestParameter, Output.Graph.Enabled, true
TestParameter, Output.Graph.AutoScaling, false
TestParameter, Output.Graph.XAxis.Data, DrainVoltage
TestParameter, Output.Graph.XAxis.Scale, Linear
TestParameter, Output.Graph.XAxis.Left, -5
TestParameter, Output.Graph.XAxis.Right, 5
TestParameter, Output.Graph.XAxis.RunTimeAutoScale, true
TestParameter, Output.Graph.YAxis.Data, DrainCurrent
TestParameter, Output.Graph.YAxis.Scale, Linear
TestParameter, Output.Graph.YAxis.Bottom, -0.1
TestParameter, Output.Graph.YAxis.Top, 0.1
TestParameter, Output.Graph.YAxis.Group, 
TestParameter, Output.Graph.YAxis.RunTimeAutoScale, true
TestParameter, Output.List.Data, V3, I3, I1
TestParameter, AutoAnalysis.Interpolation, false
TestParameter, AutoAnalysis.Var2StepCount, 1
TestParameter, AutoAnalysis.Var2StepScript, 
TestParameter, AutoAnalysis.Line1.Enabled, false
TestParameter, AutoAnalysis.Line1.Type, 1
TestParameter, AutoAnalysis.Line1.Fix, True
TestParameter, AutoAnalysis.Line1.YAxis, 0
TestParameter, AutoAnalysis.Line1.Point1.Type, 0
TestParameter, AutoAnalysis.Line1.Point1.XY.X, 
TestParameter, AutoAnalysis.Line1.Point1.XY.Y, 
TestParameter, AutoAnalysis.Line1.Point1.Data.Var, 
TestParameter, AutoAnalysis.Line1.Point1.Data.Condition, 
TestParameter, AutoAnalysis.Line1.Point1.Data.Start, false
TestParameter, AutoAnalysis.Line1.Point1.Data.StartVar, 
TestParameter, AutoAnalysis.Line1.Point1.Data.StartCondition, 
TestParameter, AutoAnalysis.Line1.Point2.Type, 0
TestParameter, AutoAnalysis.Line1.Point2.XY.X, 
TestParameter, AutoAnalysis.Line1.Point2.XY.Y, 
TestParameter, AutoAnalysis.Line1.Point2.Data.Var, 
TestParameter, AutoAnalysis.Line1.Point2.Data.Condition, 
TestParameter, AutoAnalysis.Line1.Point2.Data.Start, false
TestParameter, AutoAnalysis.Line1.Point2.Data.StartVar, 
TestParameter, AutoAnalysis.Line1.Point2.Data.StartCondition, 
TestParameter, AutoAnalysis.Line1.GradientExpr, 0
TestParameter, AutoAnalysis.Line2.Enabled, false
TestParameter, AutoAnalysis.Line2.Type, 1
TestParameter, AutoAnalysis.Line2.Fix, True
TestParameter, AutoAnalysis.Line2.YAxis, 0
TestParameter, AutoAnalysis.Line2.Point1.Type, 0
TestParameter, AutoAnalysis.Line2.Point1.XY.X, 
TestParameter, AutoAnalysis.Line2.Point1.XY.Y, 
TestParameter, AutoAnalysis.Line2.Point1.Data.Var, 
TestParameter, AutoAnalysis.Line2.Point1.Data.Condition, 
TestParameter, AutoAnalysis.Line2.Point1.Data.Start, false
TestParameter, AutoAnalysis.Line2.Point1.Data.StartVar, 
TestParameter, AutoAnalysis.Line2.Point1.Data.StartCondition, 
TestParameter, AutoAnalysis.Line2.Point2.Type, 0
TestParameter, AutoAnalysis.Line2.Point2.XY.X, 
TestParameter, AutoAnalysis.Line2.Point2.XY.Y, 
TestParameter, AutoAnalysis.Line2.Point2.Data.Var, 
TestParameter, AutoAnalysis.Line2.Point2.Data.Condition, 
TestParameter, AutoAnalysis.Line2.Point2.Data.Start, false
TestParameter, AutoAnalysis.Line2.Point2.Data.StartVar, 
TestParameter, AutoAnalysis.Line2.Point2.Data.StartCondition, 
TestParameter, AutoAnalysis.Line2.GradientExpr, 0
TestParameter, AutoAnalysis.Marker.Enabled, false
TestParameter, AutoAnalysis.Marker.Data.Var, 
TestParameter, AutoAnalysis.Marker.Data.Condition, 
TestParameter, AutoAnalysis.Marker.Data.Start, false
TestParameter, AutoAnalysis.Marker.Data.StartVar, 
TestParameter, AutoAnalysis.Marker.Data.StartCondition, 
MetaData, TestRecord.EntryPoint, true
MetaData, TestRecord.RecordTime, 05/10/2022 11:45:23
MetaData, TestRecord.TestTarget, 
MetaData, TestRecord.IterationIndex, 124
MetaData, TestRecord.Preservation, true
MetaData, TestRecord.Flag, 
MetaData, TestRecord.Remarks, 300 500 60 2 3
MetaData, TestRecord.LinkKey, 30f23b3c-6880-485a-a2fb-ea1f6e578053
MetaData, TestRecord.Parameters, 
Dimension1, 402, 402, 402, 402, 402
Dimension2, 1, 1, 1, 1, 1
DataName, DrainVoltage, DrainCurrent, V3, I3, I1
DataValue, -2, -0.00084027800000000008, , , 
DataValue, -1.9800000000000002, -0.000805768, , , 
DataValue, -1.9600000000000002, -0.000784403, , , 
DataValue, -1.9400000000000002, -0.000750502, , , 
DataValue, -1.9200000000000002, -0.000714166, , , 
DataValue, -1.9000000000000001, -0.000680227, , , 
DataValue, -1.8800000000000001, -0.00064809300000000008, , , 
DataValue, -1.86, -0.00062462600000000009, , , 
DataValue, -1.84, -0.000594544, , , 
DataValue, -1.82, -0.000567537, , , 
DataValue, -1.8, -0.000540746, , , 
DataValue, -1.78, -0.000514032, , , 
DataValue, -1.76, -0.000491549, , , 
DataValue, -1.74, -0.00046917000000000004, , , 
DataValue, -1.72, -0.00044599600000000004, , , 
DataValue, -1.7000000000000002, -0.000423966, , , 
DataValue, -1.6800000000000002, -0.000403116, , , 
DataValue, -1.6600000000000001, -0.000382844, , , 
DataValue, -1.6400000000000001, -0.000363546, , , 
DataValue, -1.62, -0.000345147, , , 
DataValue, -1.6, -0.00032753000000000003, , , 
DataValue, -1.58, -0.00031093, , , 
DataValue, -1.56, -0.000294914, , , 
DataValue, -1.54, -0.000279793, , , 
DataValue, -1.52, -0.000265391, , , 
DataValue, -1.5, -0.00025163000000000003, , , 
DataValue, -1.48, -0.00023863400000000002, , , 
DataValue, -1.46, -0.000226278, , , 
DataValue, -1.4400000000000002, -0.00021458300000000002, , , 
DataValue, -1.4200000000000002, -0.000203501, , , 
DataValue, -1.4000000000000001, -0.00019289600000000002, , , 
DataValue, -1.3800000000000001, -0.00018284800000000002, , , 
DataValue, -1.36, -0.000173628, , , 
DataValue, -1.34, -0.000164765, , , 
DataValue, -1.32, -0.000156343, , , 
DataValue, -1.3, -0.00014848900000000002, , , 
DataValue, -1.28, -0.00014101400000000002, , , 
DataValue, -1.26, -0.000133986, , , 
DataValue, -1.24, -0.000127424, , , 
DataValue, -1.22, -0.000121075, , , 
DataValue, -1.2, -0.00011511600000000001, , , 
DataValue, -1.1800000000000002, -0.00010963300000000001, , , 
DataValue, -1.1600000000000001, -0.000104436, , , 
DataValue, -1.1400000000000001, -9.94622E-05, , , 
DataValue, -1.12, -9.47593E-05, , , 
DataValue, -1.1, -9.03936E-05, , , 
DataValue, -1.08, -8.620990000000001E-05, , , 
DataValue, -1.06, -8.2364700000000008E-05, , , 
DataValue, -1.04, -7.8727600000000008E-05, , , 
DataValue, -1.02, -7.52632E-05, , , 
DataValue, -1, -7.19371E-05, , , 
DataValue, -0.98000000000000009, -6.88127E-05, , , 
DataValue, -0.96000000000000008, -6.5877200000000007E-05, , , 
DataValue, -0.94000000000000006, -6.32567E-05, , , 
DataValue, -0.92, -6.0659200000000004E-05, , , 
DataValue, -0.9, -5.79792E-05, , , 
DataValue, -0.88, -5.56702E-05, , , 
DataValue, -0.86, -5.33842E-05, , , 
DataValue, -0.84000000000000008, -5.12696E-05, , , 
DataValue, -0.82000000000000006, -4.92056E-05, , , 
DataValue, -0.8, -4.73257E-05, , , 
DataValue, -0.78, -4.5550900000000005E-05, , , 
DataValue, -0.76, -4.37449E-05, , , 
DataValue, -0.74, -4.19531E-05, , , 
DataValue, -0.72000000000000008, -4.03208E-05, , , 
DataValue, -0.70000000000000007, -3.871E-05, , , 
DataValue, -0.68, -3.7165E-05, , , 
DataValue, -0.66, -3.5670600000000004E-05, , , 
DataValue, -0.64, -3.42659E-05, , , 
DataValue, -0.62, -3.2880400000000005E-05, , , 
DataValue, -0.6, -3.1557200000000003E-05, , , 
DataValue, -0.58000000000000007, -3.0181300000000002E-05, , , 
DataValue, -0.56, -2.88599E-05, , , 
DataValue, -0.54, -2.75945E-05, , , 
DataValue, -0.52, -2.6409800000000003E-05, , , 
DataValue, -0.5, -2.5193600000000002E-05, , , 
DataValue, -0.48000000000000004, -2.40182E-05, , , 
DataValue, -0.46, -2.2861800000000002E-05, , , 
DataValue, -0.44, -2.17359E-05, , , 
DataValue, -0.42000000000000004, -2.06241E-05, , , 
DataValue, -0.4, -1.9529000000000002E-05, , , 
DataValue, -0.38, -1.84577E-05, , , 
DataValue, -0.36000000000000004, -1.7397E-05, , , 
DataValue, -0.34, -1.63499E-05, , , 
DataValue, -0.32, -1.53078E-05, , , 
DataValue, -0.3, -1.42853E-05, , , 
DataValue, -0.28, -1.32722E-05, , , 
DataValue, -0.26, -1.2273900000000001E-05, , , 
DataValue, -0.24000000000000002, -1.12809E-05, , , 
DataValue, -0.22, -1.02994E-05, , , 
DataValue, -0.2, -9.32937E-06, , , 
DataValue, -0.18000000000000002, -8.36529E-06, , , 
DataValue, -0.16, -7.4136300000000009E-06, , , 
DataValue, -0.14, -6.4636E-06, , , 
DataValue, -0.12000000000000001, -5.5278100000000005E-06, , , 
DataValue, -0.1, -4.5973000000000009E-06, , , 
DataValue, -0.08, -3.6735000000000005E-06, , , 
DataValue, -0.060000000000000005, -2.7466200000000002E-06, , , 
DataValue, -0.04, -1.8295700000000003E-06, , , 
DataValue, -0.02, -9.15498E-07, , , 
DataValue, 0, -7.762030000000001E-10, , , 
DataValue, 0.02, 9.12743E-07, , , 
DataValue, 0.04, 1.8282000000000001E-06, , , 
DataValue, 0.060000000000000005, 2.7479000000000004E-06, , , 
DataValue, 0.08, 3.6722900000000005E-06, , , 
DataValue, 0.1, 4.6021900000000007E-06, , , 
DataValue, 0.12000000000000001, 5.5392200000000008E-06, , , 
DataValue, 0.14, 6.47991E-06, , , 
DataValue, 0.16, 7.4233600000000005E-06, , , 
DataValue, 0.18000000000000002, 8.3831700000000009E-06, , , 
DataValue, 0.2, 9.35049E-06, , , 
DataValue, 0.22, 1.0329260000000002E-05, , , 
DataValue, 0.24000000000000002, 1.132124E-05, , , 
DataValue, 0.26, 1.2323300000000001E-05, , , 
DataValue, 0.28, 1.33383E-05, , , 
DataValue, 0.3, 1.43628E-05, , , 
DataValue, 0.32, 1.53969E-05, , , 
DataValue, 0.34, 1.64467E-05, , , 
DataValue, 0.36000000000000004, 1.75691E-05, , , 
DataValue, 0.38, 1.86598E-05, , , 
DataValue, 0.4, 1.97613E-05, , , 
DataValue, 0.42000000000000004, 2.08818E-05, , , 
DataValue, 0.44, 2.2013E-05, , , 
DataValue, 0.46, 2.31642E-05, , , 
DataValue, 0.48000000000000004, 2.43101E-05, , , 
DataValue, 0.5, 2.5527E-05, , , 
DataValue, 0.52, 2.6757E-05, , , 
DataValue, 0.54, 2.8039800000000002E-05, , , 
DataValue, 0.56, 2.9360900000000002E-05, , , 
DataValue, 0.58000000000000007, 3.0772400000000004E-05, , , 
DataValue, 0.6, 3.20628E-05, , , 
DataValue, 0.62, 3.3554100000000005E-05, , , 
DataValue, 0.64, 3.4999900000000003E-05, , , 
DataValue, 0.66, 3.64646E-05, , , 
DataValue, 0.68, 3.81018E-05, , , 
DataValue, 0.70000000000000007, 3.96462E-05, , , 
DataValue, 0.72000000000000008, 4.12964E-05, , , 
DataValue, 0.74, 4.31822E-05, , , 
DataValue, 0.76, 4.50119E-05, , , 
DataValue, 0.78, 4.69619E-05, , , 
DataValue, 0.8, 4.90064E-05, , , 
DataValue, 0.82000000000000006, 5.1064000000000004E-05, , , 
DataValue, 0.84000000000000008, 5.32823E-05, , , 
DataValue, 0.86, 5.5535600000000004E-05, , , 
DataValue, 0.88, 5.79321E-05, , , 
DataValue, 0.9, 6.04936E-05, , , 
DataValue, 0.92, 6.31351E-05, , , 
DataValue, 0.94000000000000006, 6.59009E-05, , , 
DataValue, 0.96000000000000008, 6.87845E-05, , , 
DataValue, 0.98000000000000009, 7.18432E-05, , , 
DataValue, 1, 7.49159E-05, , , 
DataValue, 1.02, 7.83545E-05, , , 
DataValue, 1.04, 8.20909E-05, , , 
DataValue, 1.06, 8.59208E-05, , , 
DataValue, 1.08, 9.0038000000000008E-05, , , 
DataValue, 1.1, 9.43197E-05, , , 
DataValue, 1.12, 9.9018800000000008E-05, , , 
DataValue, 1.1400000000000001, 0.00010377120000000001, , , 
DataValue, 1.1600000000000001, 0.0001086103, , , 
DataValue, 1.1800000000000002, 0.000112608, , , 
DataValue, 1.2, 0.00011840100000000001, , , 
DataValue, 1.22, 0.000124218, , , 
DataValue, 1.24, 0.00013016000000000001, , , 
DataValue, 1.26, 0.00013683600000000002, , , 
DataValue, 1.28, 0.000143807, , , 
DataValue, 1.3, 0.00015090400000000002, , , 
DataValue, 1.32, 0.000155119, , , 
DataValue, 1.34, 0.00016068, , , 
DataValue, 1.36, 0.00016964900000000002, , , 
DataValue, 1.3800000000000001, 0.000179253, , , 
DataValue, 1.4000000000000001, 0.000188294, , , 
DataValue, 1.4200000000000002, 0.00019992500000000002, , , 
DataValue, 1.4400000000000002, 0.000210855, , , 
DataValue, 1.46, 0.000216726, , , 
DataValue, 1.48, 0.000228773, , , 
DataValue, 1.5, 0.000298581, , , 
DataValue, 1.52, 0.00692408, , , 
DataValue, 1.54, 0.00688697, , , 
DataValue, 1.56, 0.00605574, , , 
DataValue, 1.58, 0.00444296, , , 
DataValue, 1.6, 0.00516169, , , 
DataValue, 1.62, 0.00598466, , , 
DataValue, 1.6400000000000001, 0.00595562, , , 
DataValue, 1.6600000000000001, 0.00605063, , , 
DataValue, 1.6800000000000002, 0.0061674500000000005, , , 
DataValue, 1.7000000000000002, 0.00615521, , , 
DataValue, 1.72, 0.00620764, , , 
DataValue, 1.74, 0.00625692, , , 
DataValue, 1.76, 0.00627443, , , 
DataValue, 1.78, 0.00627024, , , 
DataValue, 1.8, 0.0062688, , , 
DataValue, 1.82, 0.00637155, , , 
DataValue, 1.84, 0.00630998, , , 
DataValue, 1.86, 0.00644717, , , 
DataValue, 1.8800000000000001, 0.00637413, , , 
DataValue, 1.9000000000000001, 0.00645658, , , 
DataValue, 1.9200000000000002, 0.00661833, , , 
DataValue, 1.9400000000000002, 0.00669562, , , 
DataValue, 1.9600000000000002, 0.00679841, , , 
DataValue, 1.9800000000000002, 0.00699767, , , 
DataValue, 2, 0.00730779, , , 
DataValue, 2, 0.00741362, , , 
DataValue, 1.9800000000000002, 0.00738343, , , 
DataValue, 1.9600000000000002, 0.00728425, , , 
DataValue, 1.9400000000000002, 0.00715294, , , 
DataValue, 1.9200000000000002, 0.00704105, , , 
DataValue, 1.9000000000000001, 0.00694638, , , 
DataValue, 1.8800000000000001, 0.00685789, , , 
DataValue, 1.86, 0.00670211, , , 
DataValue, 1.84, 0.0065584, , , 
DataValue, 1.82, 0.00640281, , , 
DataValue, 1.8, 0.00622706, , , 
DataValue, 1.78, 0.00611139, , , 
DataValue, 1.76, 0.00621457, , , 
DataValue, 1.74, 0.00609709, , , 
DataValue, 1.72, 0.00598946, , , 
DataValue, 1.7000000000000002, 0.00588622, , , 
DataValue, 1.6800000000000002, 0.00576763, , , 
DataValue, 1.6600000000000001, 0.00564802, , , 
DataValue, 1.6400000000000001, 0.0055381, , , 
DataValue, 1.62, 0.00543403, , , 
DataValue, 1.6, 0.00531288, , , 
DataValue, 1.58, 0.00520407, , , 
DataValue, 1.56, 0.00509422, , , 
DataValue, 1.54, 0.00497924, , , 
DataValue, 1.52, 0.00487011, , , 
DataValue, 1.5, 0.00476949, , , 
DataValue, 1.48, 0.00466477, , , 
DataValue, 1.46, 0.00456641, , , 
DataValue, 1.4400000000000002, 0.00445925, , , 
DataValue, 1.4200000000000002, 0.00435503, , , 
DataValue, 1.4000000000000001, 0.00425253, , , 
DataValue, 1.3800000000000001, 0.00415056, , , 
DataValue, 1.36, 0.00405002, , , 
DataValue, 1.34, 0.00395123, , , 
DataValue, 1.32, 0.0038507100000000002, , , 
DataValue, 1.3, 0.0037491300000000003, , , 
DataValue, 1.28, 0.00364715, , , 
DataValue, 1.26, 0.00354906, , , 
DataValue, 1.24, 0.00345166, , , 
DataValue, 1.22, 0.00335489, , , 
DataValue, 1.2, 0.00325933, , , 
DataValue, 1.1800000000000002, 0.00316483, , , 
DataValue, 1.1600000000000001, 0.0030730700000000002, , , 
DataValue, 1.1400000000000001, 0.0029782800000000002, , , 
DataValue, 1.12, 0.00288659, , , 
DataValue, 1.1, 0.0027942600000000002, , , 
DataValue, 1.08, 0.00270581, , , 
DataValue, 1.06, 0.00261398, , , 
DataValue, 1.04, 0.00252671, , , 
DataValue, 1.02, 0.00243708, , , 
DataValue, 1, 0.00235065, , , 
DataValue, 0.98000000000000009, 0.00226503, , , 
DataValue, 0.96000000000000008, 0.0021808500000000002, , , 
DataValue, 0.94000000000000006, 0.00209784, , , 
DataValue, 0.92, 0.00201446, , , 
DataValue, 0.9, 0.00193136, , , 
DataValue, 0.88, 0.00185013, , , 
DataValue, 0.86, 0.00177038, , , 
DataValue, 0.84000000000000008, 0.00169077, , , 
DataValue, 0.82000000000000006, 0.0016152200000000001, , , 
DataValue, 0.8, 0.00152508, , , 
DataValue, 0.78, 0.0014523700000000001, , , 
DataValue, 0.76, 0.00137682, , , 
DataValue, 0.74, 0.00130816, , , 
DataValue, 0.72000000000000008, 0.00122626, , , 
DataValue, 0.70000000000000007, 0.001159, , , 
DataValue, 0.68, 0.00109518, , , 
DataValue, 0.66, 0.00103387, , , 
DataValue, 0.64, 0.00097272400000000011, , , 
DataValue, 0.62, 0.00091372, , , 
DataValue, 0.6, 0.00085604000000000008, , , 
DataValue, 0.58000000000000007, 0.000802044, , , 
DataValue, 0.56, 0.000749496, , , 
DataValue, 0.54, 0.000698293, , , 
DataValue, 0.52, 0.000649061, , , 
DataValue, 0.5, 0.000603611, , , 
DataValue, 0.48000000000000004, 0.00055904300000000006, , , 
DataValue, 0.46, 0.000517981, , , 
DataValue, 0.44, 0.000477952, , , 
DataValue, 0.42000000000000004, 0.000440169, , , 
DataValue, 0.4, 0.00040385800000000005, , , 
DataValue, 0.38, 0.000370483, , , 
DataValue, 0.36000000000000004, 0.000339231, , , 
DataValue, 0.34, 0.000309604, , , 
DataValue, 0.32, 0.00028210800000000004, , , 
DataValue, 0.3, 0.000255441, , , 
DataValue, 0.28, 0.00023037, , , 
DataValue, 0.26, 0.000207511, , , 
DataValue, 0.24000000000000002, 0.00018546100000000002, , , 
DataValue, 0.22, 0.000164072, , , 
DataValue, 0.2, 0.000144606, , , 
DataValue, 0.18000000000000002, 0.000126387, , , 
DataValue, 0.16, 0.000109598, , , 
DataValue, 0.14, 9.33581E-05, , , 
DataValue, 0.12000000000000001, 7.7865900000000009E-05, , , 
DataValue, 0.1, 6.35256E-05, , , 
DataValue, 0.08, 4.99567E-05, , , 
DataValue, 0.060000000000000005, 3.6882100000000004E-05, , , 
DataValue, 0.04, 2.42791E-05, , , 
DataValue, 0.02, 1.19992E-05, , , 
DataValue, 0, -2.61637E-08, , , 
DataValue, -0.02, -1.2067500000000001E-05, , , 
DataValue, -0.04, -2.42875E-05, , , 
DataValue, -0.060000000000000005, -3.67627E-05, , , 
DataValue, -0.08, -4.97395E-05, , , 
DataValue, -0.1, -6.3244600000000008E-05, , , 
DataValue, -0.12000000000000001, -7.74775E-05, , , 
DataValue, -0.14, -9.22686E-05, , , 
DataValue, -0.16, -0.0001078028, , , 
DataValue, -0.18000000000000002, -0.00012406, , , 
DataValue, -0.2, -0.000141359, , , 
DataValue, -0.22, -0.00015988000000000002, , , 
DataValue, -0.24000000000000002, -0.00017883500000000002, , , 
DataValue, -0.26, -0.00019979900000000002, , , 
DataValue, -0.28, -0.00022071700000000002, , , 
DataValue, -0.3, -0.000243219, , , 
DataValue, -0.32, -0.00026755100000000004, , , 
DataValue, -0.34, -0.000292742, , , 
DataValue, -0.36000000000000004, -0.00031944300000000004, , , 
DataValue, -0.38, -0.00034756500000000004, , , 
DataValue, -0.4, -0.000377145, , , 
DataValue, -0.42000000000000004, -0.00040827, , , 
DataValue, -0.44, -0.000441587, , , 
DataValue, -0.46, -0.00047626200000000003, , , 
DataValue, -0.48000000000000004, -0.00051339100000000009, , , 
DataValue, -0.5, -0.00055064900000000006, , , 
DataValue, -0.52, -0.00059183400000000007, , , 
DataValue, -0.54, -0.00063430700000000008, , , 
DataValue, -0.56, -0.000677925, , , 
DataValue, -0.58000000000000007, -0.000724227, , , 
