
SetupTitle, HfO2 experiment
PrimitiveTest, I/V Sweep
TestParameter, Context.MainFrame, 4155C
TestParameter, Channel.UnitType, SMU, SMU
TestParameter, Channel.Unit, SMU1:MP, SMU2:MP
TestParameter, Channel.IName, DrainCurrent, SourceCurrent
TestParameter, Channel.VName, DrainVoltage, Ground
TestParameter, Channel.Mode, V, COMMON
TestParameter, Channel.Func, VAR1, CONST
TestParameter, Channel.Index, 
TestParameter, Channel.Time, 
TestParameter, Measurement.Port.Unit, SMU1:MP, SMU2:MP
TestParameter, Measurement.Port.SeriesResistor, NONE, NONE
TestParameter, Measurement.Port.Filter, ON, ON
TestParameter, Measurement.Primary.Locus, Double
TestParameter, Measurement.Primary.Scale, LINEAR
TestParameter, Measurement.Primary.Start, -2
TestParameter, Measurement.Primary.Stop, 2
TestParameter, Measurement.Primary.Step, 0.02
TestParameter, Measurement.Primary.Compliance, 0.1
TestParameter, Measurement.Primary.PowerCompliance, 0
TestParameter, Measurement.Aborting.Condition, STOP AT ANY ABNORMAL
TestParameter, Measurement.PostOutput.Value, START
TestParameter, Measurement.PostOutput.Retention, OFF
TestParameter, Measurement.Bias.Source, -2, 0
TestParameter, Measurement.Bias.Compliance, 0.1, 0.1
TestParameter, Measurement.Monitor.Unit, SMU1:MP, SMU2:MP
TestParameter, Measurement.Monitor.Adc, HR ADC, HR ADC
TestParameter, Measurement.Monitor.RangingMode, LIMITED, LIMITED
TestParameter, Measurement.Monitor.RangeBoundary, 1nA, 1nA
TestParameter, Measurement.Monitor.RangeRating, BY FULL RANGE, BY FULL RANGE
TestParameter, Measurement.Monitor.RangeRatingCoeff, 50, 50
TestParameter, Measurement.Timing.Hold, 0
TestParameter, Measurement.Timing.Delay, 0
TestParameter, Measurement.Adc.HighResolution.AutoZero, OFF
TestParameter, Measurement.Adc.HighResolution.Mode, PLC
TestParameter, Measurement.Adc.HighResolution.Coeff, 1
TestParameter, Measurement.Ag16440ASelector.SemiconductorRelay.Channel1, DEFAULT
TestParameter, Measurement.Ag16440ASelector.SemiconductorRelay.Channel3, DEFAULT
TestParameter, Output.Graph.Enabled, true
TestParameter, Output.Graph.AutoScaling, false
TestParameter, Output.Graph.XAxis.Data, DrainVoltage
TestParameter, Output.Graph.XAxis.Scale, Linear
TestParameter, Output.Graph.XAxis.Left, -5
TestParameter, Output.Graph.XAxis.Right, 5
TestParameter, Output.Graph.XAxis.RunTimeAutoScale, true
TestParameter, Output.Graph.YAxis.Data, DrainCurrent
TestParameter, Output.Graph.YAxis.Scale, Linear
TestParameter, Output.Graph.YAxis.Bottom, -0.1
TestParameter, Output.Graph.YAxis.Top, 0.1
TestParameter, Output.Graph.YAxis.Group, 
TestParameter, Output.Graph.YAxis.RunTimeAutoScale, true
TestParameter, Output.List.Data, V3, I3, I1
TestParameter, AutoAnalysis.Interpolation, false
TestParameter, AutoAnalysis.Var2StepCount, 1
TestParameter, AutoAnalysis.Var2StepScript, 
TestParameter, AutoAnalysis.Line1.Enabled, false
TestParameter, AutoAnalysis.Line1.Type, 1
TestParameter, AutoAnalysis.Line1.Fix, True
TestParameter, AutoAnalysis.Line1.YAxis, 0
TestParameter, AutoAnalysis.Line1.Point1.Type, 0
TestParameter, AutoAnalysis.Line1.Point1.XY.X, 
TestParameter, AutoAnalysis.Line1.Point1.XY.Y, 
TestParameter, AutoAnalysis.Line1.Point1.Data.Var, 
TestParameter, AutoAnalysis.Line1.Point1.Data.Condition, 
TestParameter, AutoAnalysis.Line1.Point1.Data.Start, false
TestParameter, AutoAnalysis.Line1.Point1.Data.StartVar, 
TestParameter, AutoAnalysis.Line1.Point1.Data.StartCondition, 
TestParameter, AutoAnalysis.Line1.Point2.Type, 0
TestParameter, AutoAnalysis.Line1.Point2.XY.X, 
TestParameter, AutoAnalysis.Line1.Point2.XY.Y, 
TestParameter, AutoAnalysis.Line1.Point2.Data.Var, 
TestParameter, AutoAnalysis.Line1.Point2.Data.Condition, 
TestParameter, AutoAnalysis.Line1.Point2.Data.Start, false
TestParameter, AutoAnalysis.Line1.Point2.Data.StartVar, 
TestParameter, AutoAnalysis.Line1.Point2.Data.StartCondition, 
TestParameter, AutoAnalysis.Line1.GradientExpr, 0
TestParameter, AutoAnalysis.Line2.Enabled, false
TestParameter, AutoAnalysis.Line2.Type, 1
TestParameter, AutoAnalysis.Line2.Fix, True
TestParameter, AutoAnalysis.Line2.YAxis, 0
TestParameter, AutoAnalysis.Line2.Point1.Type, 0
TestParameter, AutoAnalysis.Line2.Point1.XY.X, 
TestParameter, AutoAnalysis.Line2.Point1.XY.Y, 
TestParameter, AutoAnalysis.Line2.Point1.Data.Var, 
TestParameter, AutoAnalysis.Line2.Point1.Data.Condition, 
TestParameter, AutoAnalysis.Line2.Point1.Data.Start, false
TestParameter, AutoAnalysis.Line2.Point1.Data.StartVar, 
TestParameter, AutoAnalysis.Line2.Point1.Data.StartCondition, 
TestParameter, AutoAnalysis.Line2.Point2.Type, 0
TestParameter, AutoAnalysis.Line2.Point2.XY.X, 
TestParameter, AutoAnalysis.Line2.Point2.XY.Y, 
TestParameter, AutoAnalysis.Line2.Point2.Data.Var, 
TestParameter, AutoAnalysis.Line2.Point2.Data.Condition, 
TestParameter, AutoAnalysis.Line2.Point2.Data.Start, false
TestParameter, AutoAnalysis.Line2.Point2.Data.StartVar, 
TestParameter, AutoAnalysis.Line2.Point2.Data.StartCondition, 
TestParameter, AutoAnalysis.Line2.GradientExpr, 0
TestParameter, AutoAnalysis.Marker.Enabled, false
TestParameter, AutoAnalysis.Marker.Data.Var, 
TestParameter, AutoAnalysis.Marker.Data.Condition, 
TestParameter, AutoAnalysis.Marker.Data.Start, false
TestParameter, AutoAnalysis.Marker.Data.StartVar, 
TestParameter, AutoAnalysis.Marker.Data.StartCondition, 
MetaData, TestRecord.EntryPoint, true
MetaData, TestRecord.RecordTime, 05/10/2022 11:55:56
MetaData, TestRecord.TestTarget, 
MetaData, TestRecord.IterationIndex, 135
MetaData, TestRecord.Preservation, true
MetaData, TestRecord.Flag, 
MetaData, TestRecord.Remarks, 300 300 60 2
MetaData, TestRecord.LinkKey, 18cfc189-b34c-4ec4-a415-1b00b4170b36
MetaData, TestRecord.Parameters, 
Dimension1, 402, 402, 402, 402, 402
Dimension2, 1, 1, 1, 1, 1
DataName, DrainVoltage, DrainCurrent, V3, I3, I1
DataValue, -2, -4.49995E-07, , , 
DataValue, -1.9800000000000002, -4.1953E-07, , , 
DataValue, -1.9600000000000002, -3.91525E-07, , , 
DataValue, -1.9400000000000002, -3.65572E-07, , , 
DataValue, -1.9200000000000002, -3.4111999999999997E-07, , , 
DataValue, -1.9000000000000001, -3.18264E-07, , , 
DataValue, -1.8800000000000001, -2.97188E-07, , , 
DataValue, -1.86, -2.77409E-07, , , 
DataValue, -1.84, -2.5866799999999997E-07, , , 
DataValue, -1.82, -2.41255E-07, , , 
DataValue, -1.8, -2.2485E-07, , , 
DataValue, -1.78, -2.0933099999999998E-07, , , 
DataValue, -1.76, -1.94855E-07, , , 
DataValue, -1.74, -1.81275E-07, , , 
DataValue, -1.72, -1.68722E-07, , , 
DataValue, -1.7000000000000002, -1.57209E-07, , , 
DataValue, -1.6800000000000002, -1.4598E-07, , , 
DataValue, -1.6600000000000001, -1.35608E-07, , , 
DataValue, -1.6400000000000001, -1.2601E-07, , , 
DataValue, -1.62, -1.1699199999999999E-07, , , 
DataValue, -1.6, -1.08528E-07, , , 
DataValue, -1.58, -1.0074269999999999E-07, , , 
DataValue, -1.56, -9.329E-08, , , 
DataValue, -1.54, -8.6349699999999986E-08, , , 
DataValue, -1.52, -7.983579999999999E-08, , , 
DataValue, -1.5, -7.3973399999999992E-08, , , 
DataValue, -1.48, -6.8417099999999989E-08, , , 
DataValue, -1.46, -6.319669999999999E-08, , , 
DataValue, -1.4400000000000002, -5.8467099999999996E-08, , , 
DataValue, -1.4200000000000002, -5.3928899999999994E-08, , , 
DataValue, -1.4000000000000001, -4.9724799999999993E-08, , , 
DataValue, -1.3800000000000001, -4.58533E-08, , , 
DataValue, -1.36, -4.2262199999999996E-08, , , 
DataValue, -1.34, -3.8880999999999996E-08, , , 
DataValue, -1.32, -3.5705399999999996E-08, , , 
DataValue, -1.3, -3.28179E-08, , , 
DataValue, -1.28, -3.0159E-08, , , 
DataValue, -1.26, -2.76517E-08, , , 
DataValue, -1.24, -2.53557E-08, , , 
DataValue, -1.22, -2.3277299999999997E-08, , , 
DataValue, -1.2, -2.1300599999999998E-08, , , 
DataValue, -1.1800000000000002, -1.9470899999999997E-08, , , 
DataValue, -1.1600000000000001, -1.7784E-08, , , 
DataValue, -1.1400000000000001, -1.62271E-08, , , 
DataValue, -1.12, -1.4759499999999999E-08, , , 
DataValue, -1.1, -1.3434399999999998E-08, , , 
DataValue, -1.08, -1.2193399999999999E-08, , , 
DataValue, -1.06, -1.1058299999999999E-08, , , 
DataValue, -1.04, -1.0197699999999998E-08, , , 
DataValue, -1.02, -9.45304E-09, , , 
DataValue, -1, -8.56582E-09, , , 
DataValue, -0.98000000000000009, -7.77887E-09, , , 
DataValue, -0.96000000000000008, -7.03023E-09, , , 
DataValue, -0.94000000000000006, -6.48908E-09, , , 
DataValue, -0.92, -5.88797E-09, , , 
DataValue, -0.9, -5.33337E-09, , , 
DataValue, -0.88, -4.79514E-09, , , 
DataValue, -0.86, -4.32392E-09, , , 
DataValue, -0.84000000000000008, -3.89622E-09, , , 
DataValue, -0.82000000000000006, -3.49989E-09, , , 
DataValue, -0.8, -3.1405E-09, , , 
DataValue, -0.78, -2.81023E-09, , , 
DataValue, -0.76, -2.51406E-09, , , 
DataValue, -0.74, -2.24169E-09, , , 
DataValue, -0.72000000000000008, -1.9975E-09, , , 
DataValue, -0.70000000000000007, -1.77507E-09, , , 
DataValue, -0.68, -1.5735E-09, , , 
DataValue, -0.66, -1.39128E-09, , , 
DataValue, -0.64, -1.22525E-09, , , 
DataValue, -0.62, -1.07562E-09, , , 
DataValue, -0.6, -9.5078400000000014E-10, , , 
DataValue, -0.58000000000000007, -8.32266E-10, , , 
DataValue, -0.56, -7.2573300000000006E-10, , , 
DataValue, -0.54, -6.27664E-10, , , 
DataValue, -0.52, -5.41603E-10, , , 
DataValue, -0.5, -4.6028700000000005E-10, , , 
DataValue, -0.48000000000000004, -3.8991400000000004E-10, , , 
DataValue, -0.46, -3.25487E-10, , , 
DataValue, -0.44, -2.69273E-10, , , 
DataValue, -0.42000000000000004, -2.19439E-10, , , 
DataValue, -0.4, -1.72669E-10, , , 
DataValue, -0.38, -1.32249E-10, , , 
DataValue, -0.36000000000000004, -9.9314000000000012E-11, , , 
DataValue, -0.34, -6.7379000000000008E-11, , , 
DataValue, -0.32, -3.852E-11, , , 
DataValue, -0.3, -1.3542E-11, , , 
DataValue, -0.28, 9.585E-12, , , 
DataValue, -0.26, 2.9582E-11, , , 
DataValue, -0.24000000000000002, 4.7935000000000007E-11, , , 
DataValue, -0.22, 6.2869E-11, , , 
DataValue, -0.2, 7.9358000000000007E-11, , , 
DataValue, -0.18000000000000002, 9.381600000000001E-11, , , 
DataValue, -0.16, 1.06049E-10, , , 
DataValue, -0.14, 1.17072E-10, , , 
DataValue, -0.12000000000000001, 1.26823E-10, , , 
DataValue, -0.1, 1.3581600000000002E-10, , , 
DataValue, -0.08, 1.4446700000000002E-10, , , 
DataValue, -0.060000000000000005, 1.52565E-10, , , 
DataValue, -0.04, 1.5976300000000003E-10, , , 
DataValue, -0.02, 1.6651E-10, , , 
DataValue, 0, 1.73652E-10, , , 
DataValue, 0.02, 1.80444E-10, , , 
DataValue, 0.04, 1.87603E-10, , , 
DataValue, 0.060000000000000005, 1.94549E-10, , , 
DataValue, 0.08, 2.0308200000000003E-10, , , 
DataValue, 0.1, 2.10604E-10, , , 
DataValue, 0.12000000000000001, 2.1934300000000002E-10, , , 
DataValue, 0.14, 2.2880000000000003E-10, , , 
DataValue, 0.16, 2.3869600000000003E-10, , , 
DataValue, 0.18000000000000002, 2.4989900000000003E-10, , , 
DataValue, 0.2, 2.6297700000000003E-10, , , 
DataValue, 0.22, 2.76433E-10, , , 
DataValue, 0.24000000000000002, 2.9290500000000003E-10, , , 
DataValue, 0.26, 3.10314E-10, , , 
DataValue, 0.28, 3.3055400000000005E-10, , , 
DataValue, 0.3, 3.5218800000000004E-10, , , 
DataValue, 0.32, 3.7737800000000003E-10, , , 
DataValue, 0.34, 4.05634E-10, , , 
DataValue, 0.36000000000000004, 4.3770500000000004E-10, , , 
DataValue, 0.38, 4.73262E-10, , , 
DataValue, 0.4, 5.13869E-10, , , 
DataValue, 0.42000000000000004, 5.5919600000000006E-10, , , 
DataValue, 0.44, 6.10199E-10, , , 
DataValue, 0.46, 6.6702500000000008E-10, , , 
DataValue, 0.48000000000000004, 7.3066800000000011E-10, , , 
DataValue, 0.5, 8.01577E-10, , , 
DataValue, 0.52, 8.8127100000000011E-10, , , 
DataValue, 0.54, 9.9102E-10, , , 
DataValue, 0.56, 1.0842E-09, , , 
DataValue, 0.58000000000000007, 1.19742E-09, , , 
DataValue, 0.6, 1.32052E-09, , , 
DataValue, 0.62, 1.4642E-09, , , 
DataValue, 0.64, 1.61815E-09, , , 
DataValue, 0.66, 1.78801E-09, , , 
DataValue, 0.68, 1.97417E-09, , , 
DataValue, 0.70000000000000007, 2.18012E-09, , , 
DataValue, 0.72000000000000008, 2.40559E-09, , , 
DataValue, 0.74, 2.65028E-09, , , 
DataValue, 0.76, 2.92549E-09, , , 
DataValue, 0.78, 3.22447E-09, , , 
DataValue, 0.8, 3.5503E-09, , , 
DataValue, 0.82000000000000006, 3.91645E-09, , , 
DataValue, 0.84000000000000008, 4.30121E-09, , , 
DataValue, 0.86, 4.72572E-09, , , 
DataValue, 0.88, 5.18831E-09, , , 
DataValue, 0.9, 5.69164E-09, , , 
DataValue, 0.92, 6.23995E-09, , , 
DataValue, 0.94000000000000006, 6.8341E-09, , , 
DataValue, 0.96000000000000008, 7.48387E-09, , , 
DataValue, 0.98000000000000009, 8.18765E-09, , , 
DataValue, 1, 8.93717E-09, , , 
DataValue, 1.02, 9.76943E-09, , , 
DataValue, 1.04, 1.05785E-08, , , 
DataValue, 1.06, 1.1978899999999999E-08, , , 
DataValue, 1.08, 1.3223799999999999E-08, , , 
DataValue, 1.1, 1.4518199999999999E-08, , , 
DataValue, 1.12, 1.58861E-08, , , 
DataValue, 1.1400000000000001, 1.73662E-08, , , 
DataValue, 1.1600000000000001, 1.8933299999999998E-08, , , 
DataValue, 1.1800000000000002, 2.0628099999999997E-08, , , 
DataValue, 1.2, 2.2444499999999996E-08, , , 
DataValue, 1.22, 2.44135E-08, , , 
DataValue, 1.24, 2.6494699999999997E-08, , , 
DataValue, 1.26, 2.8744199999999997E-08, , , 
DataValue, 1.28, 3.11739E-08, , , 
DataValue, 1.3, 3.3777E-08, , , 
DataValue, 1.32, 3.6584199999999996E-08, , , 
DataValue, 1.34, 3.95249E-08, , , 
DataValue, 1.36, 4.2712299999999995E-08, , , 
DataValue, 1.3800000000000001, 4.6117199999999993E-08, , , 
DataValue, 1.4000000000000001, 4.9768799999999996E-08, , , 
DataValue, 1.4200000000000002, 5.3657599999999995E-08, , , 
DataValue, 1.4400000000000002, 5.7855099999999996E-08, , , 
DataValue, 1.46, 6.22912E-08, , , 
DataValue, 1.48, 6.54679E-08, , , 
DataValue, 1.5, 6.97313E-08, , , 
DataValue, 1.52, 7.4349499999999987E-08, , , 
DataValue, 1.54, 7.94776E-08, , , 
DataValue, 1.56, 8.48343E-08, , , 
DataValue, 1.58, 9.0602099999999985E-08, , , 
DataValue, 1.6, 9.6747499999999987E-08, , , 
DataValue, 1.62, 1.03465E-07, , , 
DataValue, 1.6400000000000001, 1.1159E-07, , , 
DataValue, 1.6600000000000001, 1.20006E-07, , , 
DataValue, 1.6800000000000002, 1.28925E-07, , , 
DataValue, 1.7000000000000002, 1.38124E-07, , , 
DataValue, 1.72, 1.48139E-07, , , 
DataValue, 1.74, 1.58772E-07, , , 
DataValue, 1.76, 1.69773E-07, , , 
DataValue, 1.78, 1.81568E-07, , , 
DataValue, 1.8, 1.93931E-07, , , 
DataValue, 1.82, 2.07109E-07, , , 
DataValue, 1.84, 2.20936E-07, , , 
DataValue, 1.86, 2.35667E-07, , , 
DataValue, 1.8800000000000001, 2.51627E-07, , , 
DataValue, 1.9000000000000001, 2.68141E-07, , , 
DataValue, 1.9200000000000002, 2.8586299999999997E-07, , , 
DataValue, 1.9400000000000002, 3.04724E-07, , , 
DataValue, 1.9600000000000002, 3.2431199999999997E-07, , , 
DataValue, 1.9800000000000002, 3.45122E-07, , , 
DataValue, 2, 3.66678E-07, , , 
DataValue, 2, 3.65026E-07, , , 
DataValue, 1.9800000000000002, 3.40346E-07, , , 
DataValue, 1.9600000000000002, 3.1766E-07, , , 
DataValue, 1.9400000000000002, 2.9599299999999997E-07, , , 
DataValue, 1.9200000000000002, 2.7609E-07, , , 
DataValue, 1.9000000000000001, 2.57613E-07, , , 
DataValue, 1.8800000000000001, 2.40098E-07, , , 
DataValue, 1.86, 2.2375E-07, , , 
DataValue, 1.84, 2.0863199999999999E-07, , , 
DataValue, 1.82, 1.94331E-07, , , 
DataValue, 1.8, 1.81091E-07, , , 
DataValue, 1.78, 1.68772E-07, , , 
DataValue, 1.76, 1.57101E-07, , , 
DataValue, 1.74, 1.46322E-07, , , 
DataValue, 1.72, 1.36214E-07, , , 
DataValue, 1.7000000000000002, 1.26654E-07, , , 
DataValue, 1.6800000000000002, 1.17883E-07, , , 
DataValue, 1.6600000000000001, 1.0963899999999999E-07, , , 
DataValue, 1.6400000000000001, 1.01751E-07, , , 
DataValue, 1.62, 9.47556E-08, , , 
DataValue, 1.6, 8.77526E-08, , , 
DataValue, 1.58, 8.1416399999999988E-08, , , 
DataValue, 1.56, 7.5516999999999987E-08, , , 
DataValue, 1.54, 7.00045E-08, , , 
DataValue, 1.52, 6.4872599999999993E-08, , , 
DataValue, 1.5, 6.0108399999999993E-08, , , 
DataValue, 1.48, 5.5639999999999994E-08, , , 
DataValue, 1.46, 5.13906E-08, , , 
DataValue, 1.4400000000000002, 4.749E-08, , , 
DataValue, 1.4200000000000002, 4.3837399999999993E-08, , , 
DataValue, 1.4000000000000001, 4.0466499999999994E-08, , , 
DataValue, 1.3800000000000001, 3.73102E-08, , , 
DataValue, 1.36, 3.4377699999999996E-08, , , 
DataValue, 1.34, 3.16443E-08, , , 
DataValue, 1.32, 2.9094099999999998E-08, , , 
DataValue, 1.3, 2.6736699999999997E-08, , , 
DataValue, 1.28, 2.4552799999999997E-08, , , 
DataValue, 1.26, 2.25173E-08, , , 
DataValue, 1.24, 2.0632199999999997E-08, , , 
DataValue, 1.22, 1.88755E-08, , , 
DataValue, 1.2, 1.7276599999999998E-08, , , 
DataValue, 1.1800000000000002, 1.5794099999999998E-08, , , 
DataValue, 1.1600000000000001, 1.4390299999999998E-08, , , 
DataValue, 1.1400000000000001, 1.3081399999999998E-08, , , 
DataValue, 1.12, 1.18763E-08, , , 
DataValue, 1.1, 1.08745E-08, , , 
DataValue, 1.08, 1.030599E-08, , , 
DataValue, 1.06, 9.60931E-09, , , 
DataValue, 1.04, 8.63712E-09, , , 
DataValue, 1.02, 7.80853E-09, , , 
DataValue, 1, 7.07401E-09, , , 
DataValue, 0.98000000000000009, 6.59411E-09, , , 
DataValue, 0.96000000000000008, 6.00545E-09, , , 
DataValue, 0.94000000000000006, 5.46839E-09, , , 
DataValue, 0.92, 4.95028E-09, , , 
DataValue, 0.9, 4.48864E-09, , , 
DataValue, 0.88, 4.05024E-09, , , 
DataValue, 0.86, 3.65234E-09, , , 
DataValue, 0.84000000000000008, 3.29232E-09, , , 
DataValue, 0.82000000000000006, 2.95946E-09, , , 
DataValue, 0.8, 2.65847E-09, , , 
DataValue, 0.78, 2.37757E-09, , , 
DataValue, 0.76, 2.12526E-09, , , 
DataValue, 0.74, 1.89824E-09, , , 
DataValue, 0.72000000000000008, 1.68806E-09, , , 
DataValue, 0.70000000000000007, 1.49699E-09, , , 
DataValue, 0.68, 1.32738E-09, , , 
DataValue, 0.66, 1.17022E-09, , , 
DataValue, 0.64, 1.02766E-09, , , 
DataValue, 0.62, 9.1175400000000012E-10, , , 
DataValue, 0.6, 8.00459E-10, , , 
DataValue, 0.58000000000000007, 6.9827500000000005E-10, , , 
DataValue, 0.56, 6.0664800000000005E-10, , , 
DataValue, 0.54, 5.2338E-10, , , 
DataValue, 0.52, 4.4788600000000006E-10, , , 
DataValue, 0.5, 3.7907300000000004E-10, , , 
DataValue, 0.48000000000000004, 3.1797100000000005E-10, , , 
DataValue, 0.46, 2.62958E-10, , , 
DataValue, 0.44, 2.1269000000000002E-10, , , 
DataValue, 0.42000000000000004, 1.6829900000000002E-10, , , 
DataValue, 0.4, 1.28941E-10, , , 
DataValue, 0.38, 9.6984E-11, , , 
DataValue, 0.36000000000000004, 6.4858E-11, , , 
DataValue, 0.34, 3.6414E-11, , , 
DataValue, 0.32, 1.1081000000000001E-11, , , 
DataValue, 0.3, -1.2958E-11, , , 
DataValue, 0.28, -3.2743E-11, , , 
DataValue, 0.26, -4.9841E-11, , , 
DataValue, 0.24000000000000002, -6.4996E-11, , , 
DataValue, 0.22, -8.3294000000000012E-11, , , 
DataValue, 0.2, -9.8291000000000012E-11, , , 
DataValue, 0.18000000000000002, -1.1149000000000001E-10, , , 
DataValue, 0.16, -1.2321400000000002E-10, , , 
DataValue, 0.14, -1.33654E-10, , , 
DataValue, 0.12000000000000001, -1.4348E-10, , , 
DataValue, 0.1, -1.5270800000000002E-10, , , 
DataValue, 0.08, -1.6117500000000002E-10, , , 
DataValue, 0.060000000000000005, -1.69033E-10, , , 
DataValue, 0.04, -1.76716E-10, , , 
DataValue, 0.02, -1.84472E-10, , , 
DataValue, 0, -1.91699E-10, , , 
DataValue, -0.02, -1.98301E-10, , , 
DataValue, -0.04, -2.0567800000000002E-10, , , 
DataValue, -0.060000000000000005, -2.134E-10, , , 
DataValue, -0.08, -2.21711E-10, , , 
DataValue, -0.1, -2.29666E-10, , , 
DataValue, -0.12000000000000001, -2.3864900000000004E-10, , , 
DataValue, -0.14, -2.4802600000000004E-10, , , 
DataValue, -0.16, -2.5832500000000004E-10, , , 
DataValue, -0.18000000000000002, -2.6940100000000003E-10, , , 
DataValue, -0.2, -2.81785E-10, , , 
DataValue, -0.22, -2.9555800000000005E-10, , , 
DataValue, -0.24000000000000002, -3.10657E-10, , , 
DataValue, -0.26, -3.2720200000000003E-10, , , 
DataValue, -0.28, -3.46122E-10, , , 
DataValue, -0.3, -3.6736400000000005E-10, , , 
DataValue, -0.32, -3.9108E-10, , , 
DataValue, -0.34, -4.1648100000000005E-10, , , 
DataValue, -0.36000000000000004, -4.4523400000000006E-10, , , 
DataValue, -0.38, -4.7844200000000007E-10, , , 
DataValue, -0.4, -5.15233E-10, , , 
DataValue, -0.42000000000000004, -5.56229E-10, , , 
