
SetupTitle, HfO2 experiment
PrimitiveTest, I/V Sweep
TestParameter, Context.MainFrame, 4155C
TestParameter, Channel.UnitType, SMU, SMU
TestParameter, Channel.Unit, SMU1:MP, SMU2:MP
TestParameter, Channel.IName, DrainCurrent, SourceCurrent
TestParameter, Channel.VName, DrainVoltage, Ground
TestParameter, Channel.Mode, V, COMMON
TestParameter, Channel.Func, VAR1, CONST
TestParameter, Channel.Index, 
TestParameter, Channel.Time, 
TestParameter, Measurement.Port.Unit, SMU1:MP, SMU2:MP
TestParameter, Measurement.Port.SeriesResistor, NONE, NONE
TestParameter, Measurement.Port.Filter, ON, ON
TestParameter, Measurement.Primary.Locus, Double
TestParameter, Measurement.Primary.Scale, LINEAR
TestParameter, Measurement.Primary.Start, -1
TestParameter, Measurement.Primary.Stop, 1
TestParameter, Measurement.Primary.Step, 0.02
TestParameter, Measurement.Primary.Compliance, 0.1
TestParameter, Measurement.Primary.PowerCompliance, 0
TestParameter, Measurement.Aborting.Condition, STOP AT ANY ABNORMAL
TestParameter, Measurement.PostOutput.Value, START
TestParameter, Measurement.PostOutput.Retention, OFF
TestParameter, Measurement.Bias.Source, -1, 0
TestParameter, Measurement.Bias.Compliance, 0.1, 0.1
TestParameter, Measurement.Monitor.Unit, SMU1:MP, SMU2:MP
TestParameter, Measurement.Monitor.Adc, HR ADC, HR ADC
TestParameter, Measurement.Monitor.RangingMode, LIMITED, LIMITED
TestParameter, Measurement.Monitor.RangeBoundary, 1nA, 1nA
TestParameter, Measurement.Monitor.RangeRating, BY FULL RANGE, BY FULL RANGE
TestParameter, Measurement.Monitor.RangeRatingCoeff, 50, 50
TestParameter, Measurement.Timing.Hold, 0
TestParameter, Measurement.Timing.Delay, 0
TestParameter, Measurement.Adc.HighResolution.AutoZero, OFF
TestParameter, Measurement.Adc.HighResolution.Mode, PLC
TestParameter, Measurement.Adc.HighResolution.Coeff, 1
TestParameter, Measurement.Ag16440ASelector.SemiconductorRelay.Channel1, DEFAULT
TestParameter, Measurement.Ag16440ASelector.SemiconductorRelay.Channel3, DEFAULT
TestParameter, Output.Graph.Enabled, true
TestParameter, Output.Graph.AutoScaling, false
TestParameter, Output.Graph.XAxis.Data, DrainVoltage
TestParameter, Output.Graph.XAxis.Scale, Linear
TestParameter, Output.Graph.XAxis.Left, -5
TestParameter, Output.Graph.XAxis.Right, 5
TestParameter, Output.Graph.XAxis.RunTimeAutoScale, true
TestParameter, Output.Graph.YAxis.Data, DrainCurrent
TestParameter, Output.Graph.YAxis.Scale, Linear
TestParameter, Output.Graph.YAxis.Bottom, -0.1
TestParameter, Output.Graph.YAxis.Top, 0.1
TestParameter, Output.Graph.YAxis.Group, 
TestParameter, Output.Graph.YAxis.RunTimeAutoScale, true
TestParameter, Output.List.Data, V3, I3, I1
TestParameter, AutoAnalysis.Interpolation, false
TestParameter, AutoAnalysis.Var2StepCount, 1
TestParameter, AutoAnalysis.Var2StepScript, 
TestParameter, AutoAnalysis.Line1.Enabled, false
TestParameter, AutoAnalysis.Line1.Type, 1
TestParameter, AutoAnalysis.Line1.Fix, True
TestParameter, AutoAnalysis.Line1.YAxis, 0
TestParameter, AutoAnalysis.Line1.Point1.Type, 0
TestParameter, AutoAnalysis.Line1.Point1.XY.X, 
TestParameter, AutoAnalysis.Line1.Point1.XY.Y, 
TestParameter, AutoAnalysis.Line1.Point1.Data.Var, 
TestParameter, AutoAnalysis.Line1.Point1.Data.Condition, 
TestParameter, AutoAnalysis.Line1.Point1.Data.Start, false
TestParameter, AutoAnalysis.Line1.Point1.Data.StartVar, 
TestParameter, AutoAnalysis.Line1.Point1.Data.StartCondition, 
TestParameter, AutoAnalysis.Line1.Point2.Type, 0
TestParameter, AutoAnalysis.Line1.Point2.XY.X, 
TestParameter, AutoAnalysis.Line1.Point2.XY.Y, 
TestParameter, AutoAnalysis.Line1.Point2.Data.Var, 
TestParameter, AutoAnalysis.Line1.Point2.Data.Condition, 
TestParameter, AutoAnalysis.Line1.Point2.Data.Start, false
TestParameter, AutoAnalysis.Line1.Point2.Data.StartVar, 
TestParameter, AutoAnalysis.Line1.Point2.Data.StartCondition, 
TestParameter, AutoAnalysis.Line1.GradientExpr, 0
TestParameter, AutoAnalysis.Line2.Enabled, false
TestParameter, AutoAnalysis.Line2.Type, 1
TestParameter, AutoAnalysis.Line2.Fix, True
TestParameter, AutoAnalysis.Line2.YAxis, 0
TestParameter, AutoAnalysis.Line2.Point1.Type, 0
TestParameter, AutoAnalysis.Line2.Point1.XY.X, 
TestParameter, AutoAnalysis.Line2.Point1.XY.Y, 
TestParameter, AutoAnalysis.Line2.Point1.Data.Var, 
TestParameter, AutoAnalysis.Line2.Point1.Data.Condition, 
TestParameter, AutoAnalysis.Line2.Point1.Data.Start, false
TestParameter, AutoAnalysis.Line2.Point1.Data.StartVar, 
TestParameter, AutoAnalysis.Line2.Point1.Data.StartCondition, 
TestParameter, AutoAnalysis.Line2.Point2.Type, 0
TestParameter, AutoAnalysis.Line2.Point2.XY.X, 
TestParameter, AutoAnalysis.Line2.Point2.XY.Y, 
TestParameter, AutoAnalysis.Line2.Point2.Data.Var, 
TestParameter, AutoAnalysis.Line2.Point2.Data.Condition, 
TestParameter, AutoAnalysis.Line2.Point2.Data.Start, false
TestParameter, AutoAnalysis.Line2.Point2.Data.StartVar, 
TestParameter, AutoAnalysis.Line2.Point2.Data.StartCondition, 
TestParameter, AutoAnalysis.Line2.GradientExpr, 0
TestParameter, AutoAnalysis.Marker.Enabled, false
TestParameter, AutoAnalysis.Marker.Data.Var, 
TestParameter, AutoAnalysis.Marker.Data.Condition, 
TestParameter, AutoAnalysis.Marker.Data.Start, false
TestParameter, AutoAnalysis.Marker.Data.StartVar, 
TestParameter, AutoAnalysis.Marker.Data.StartCondition, 
MetaData, TestRecord.EntryPoint, true
MetaData, TestRecord.RecordTime, 05/10/2022 11:24:50
MetaData, TestRecord.TestTarget, 
MetaData, TestRecord.IterationIndex, 106
MetaData, TestRecord.Preservation, true
MetaData, TestRecord.Flag, 
MetaData, TestRecord.Remarks, 300 500 60 1 1
MetaData, TestRecord.LinkKey, 058ad711-a1d6-49ba-ab5f-50a7b0056bb2
MetaData, TestRecord.Parameters, 
Dimension1, 202, 202, 202, 202, 202
Dimension2, 1, 1, 1, 1, 1
DataName, DrainVoltage, DrainCurrent, V3, I3, I1
DataValue, -1, -1.00343E-07, , , 
DataValue, -0.98000000000000009, -9.1857999999999988E-08, , , 
DataValue, -0.96000000000000008, -8.4456099999999991E-08, , , 
DataValue, -0.94000000000000006, -7.78101E-08, , , 
DataValue, -0.92, -7.16698E-08, , , 
DataValue, -0.9, -6.59741E-08, , , 
DataValue, -0.88, -6.0749099999999989E-08, , , 
DataValue, -0.86, -5.5914399999999995E-08, , , 
DataValue, -0.84000000000000008, -5.1416099999999994E-08, , , 
DataValue, -0.82000000000000006, -4.7242499999999994E-08, , , 
DataValue, -0.8, -4.3363599999999995E-08, , , 
DataValue, -0.78, -3.9765899999999995E-08, , , 
DataValue, -0.76, -3.64522E-08, , , 
DataValue, -0.74, -3.3373199999999995E-08, , , 
DataValue, -0.72000000000000008, -3.05062E-08, , , 
DataValue, -0.70000000000000007, -2.78453E-08, , , 
DataValue, -0.68, -2.5387599999999997E-08, , , 
DataValue, -0.66, -2.31194E-08, , , 
DataValue, -0.64, -2.1002099999999997E-08, , , 
DataValue, -0.62, -1.90442E-08, , , 
DataValue, -0.6, -1.72555E-08, , , 
DataValue, -0.58000000000000007, -1.55867E-08, , , 
DataValue, -0.56, -1.4053399999999999E-08, , , 
DataValue, -0.54, -1.2634499999999998E-08, , , 
DataValue, -0.52, -1.1330899999999999E-08, , , 
DataValue, -0.5, -1.02828E-08, , , 
DataValue, -0.48000000000000004, -9.4864E-09, , , 
DataValue, -0.46, -8.46436E-09, , , 
DataValue, -0.44, -7.54259E-09, , , 
DataValue, -0.42000000000000004, -6.69559E-09, , , 
DataValue, -0.4, -6.13277E-09, , , 
DataValue, -0.38, -5.4698E-09, , , 
DataValue, -0.36000000000000004, -4.84706E-09, , , 
DataValue, -0.34, -4.26743E-09, , , 
DataValue, -0.32, -3.74217E-09, , , 
DataValue, -0.3, -3.26183E-09, , , 
DataValue, -0.28, -2.82508E-09, , , 
DataValue, -0.26, -2.43704E-09, , , 
DataValue, -0.24000000000000002, -2.07882E-09, , , 
DataValue, -0.22, -1.75931E-09, , , 
DataValue, -0.2, -1.47186E-09, , , 
DataValue, -0.18000000000000002, -1.21347E-09, , , 
DataValue, -0.16, -9.98101E-10, , , 
DataValue, -0.14, -7.9686000000000008E-10, , , 
DataValue, -0.12000000000000001, -6.1561600000000006E-10, , , 
DataValue, -0.1, -4.5280900000000005E-10, , , 
DataValue, -0.08, -3.0537900000000003E-10, , , 
DataValue, -0.060000000000000005, -1.7097500000000002E-10, , , 
DataValue, -0.04, -5.0897000000000007E-11, , , 
DataValue, -0.02, 6.071E-11, , , 
DataValue, 0, 1.7773400000000002E-10, , , 
DataValue, 0.02, 2.9207400000000004E-10, , , 
DataValue, 0.04, 4.1147200000000004E-10, , , 
DataValue, 0.060000000000000005, 5.38655E-10, , , 
DataValue, 0.08, 6.77917E-10, , , 
DataValue, 0.1, 8.33389E-10, , , 
DataValue, 0.12000000000000001, 1.03352E-09, , , 
DataValue, 0.14, 1.22034E-09, , , 
DataValue, 0.16, 1.44541E-09, , , 
DataValue, 0.18000000000000002, 1.69978E-09, , , 
DataValue, 0.2, 1.98744E-09, , , 
DataValue, 0.22, 2.30885E-09, , , 
DataValue, 0.24000000000000002, 2.67206E-09, , , 
DataValue, 0.26, 3.07575E-09, , , 
DataValue, 0.28, 3.52593E-09, , , 
DataValue, 0.3, 4.0269E-09, , , 
DataValue, 0.32, 4.5821E-09, , , 
DataValue, 0.34, 5.19779E-09, , , 
DataValue, 0.36000000000000004, 5.883E-09, , , 
DataValue, 0.38, 6.63462E-09, , , 
DataValue, 0.4, 7.46364E-09, , , 
DataValue, 0.42000000000000004, 8.37103E-09, , , 
DataValue, 0.44, 9.3714E-09, , , 
DataValue, 0.46, 1.05026E-08, , , 
DataValue, 0.48000000000000004, 1.2103699999999999E-08, , , 
DataValue, 0.5, 1.3565599999999999E-08, , , 
DataValue, 0.52, 1.50888E-08, , , 
DataValue, 0.54, 1.6734099999999998E-08, , , 
DataValue, 0.56, 1.8508099999999998E-08, , , 
DataValue, 0.58000000000000007, 2.0419999999999997E-08, , , 
DataValue, 0.6, 2.2493899999999997E-08, , , 
DataValue, 0.62, 2.4742599999999997E-08, , , 
DataValue, 0.64, 2.7168999999999997E-08, , , 
DataValue, 0.66, 2.98101E-08, , , 
DataValue, 0.68, 3.26544E-08, , , 
DataValue, 0.70000000000000007, 3.5728899999999996E-08, , , 
DataValue, 0.72000000000000008, 3.90602E-08, , , 
DataValue, 0.74, 4.2632399999999996E-08, , , 
DataValue, 0.76, 4.65061E-08, , , 
DataValue, 0.78, 5.07147E-08, , , 
DataValue, 0.8, 5.52006E-08, , , 
DataValue, 0.82000000000000006, 6.0023199999999992E-08, , , 
DataValue, 0.84000000000000008, 6.5251199999999991E-08, , , 
DataValue, 0.86, 6.9996499999999988E-08, , , 
DataValue, 0.88, 7.5845199999999986E-08, , , 
DataValue, 0.9, 8.21029E-08, , , 
DataValue, 0.92, 8.89357E-08, , , 
DataValue, 0.94000000000000006, 9.61977E-08, , , 
DataValue, 0.96000000000000008, 1.04002E-07, , , 
DataValue, 0.98000000000000009, 1.12841E-07, , , 
DataValue, 1, 1.22026E-07, , , 
DataValue, 1, 1.21603E-07, , , 
DataValue, 0.98000000000000009, 1.11991E-07, , , 
DataValue, 0.96000000000000008, 1.03314E-07, , , 
DataValue, 0.94000000000000006, 9.5465699999999986E-08, , , 
DataValue, 0.92, 8.78701E-08, , , 
DataValue, 0.9, 8.0912299999999993E-08, , , 
DataValue, 0.88, 7.44745E-08, , , 
DataValue, 0.86, 6.8437899999999988E-08, , , 
DataValue, 0.84000000000000008, 6.28454E-08, , , 
DataValue, 0.82000000000000006, 5.7649199999999993E-08, , , 
DataValue, 0.8, 5.28376E-08, , , 
DataValue, 0.78, 4.8402499999999993E-08, , , 
DataValue, 0.76, 4.4248399999999995E-08, , , 
DataValue, 0.74, 4.0419299999999996E-08, , , 
DataValue, 0.72000000000000008, 3.6861499999999996E-08, , , 
DataValue, 0.70000000000000007, 3.35775E-08, , , 
DataValue, 0.68, 3.05412E-08, , , 
DataValue, 0.66, 2.7748699999999996E-08, , , 
DataValue, 0.64, 2.5134199999999996E-08, , , 
DataValue, 0.62, 2.2749299999999997E-08, , , 
DataValue, 0.6, 2.05431E-08, , , 
DataValue, 0.58000000000000007, 1.85165E-08, , , 
DataValue, 0.56, 1.66465E-08, , , 
DataValue, 0.54, 1.49199E-08, , , 
DataValue, 0.52, 1.33479E-08, , , 
DataValue, 0.5, 1.1902099999999998E-08, , , 
DataValue, 0.48000000000000004, 1.06548E-08, , , 
DataValue, 0.46, 9.85465E-09, , , 
DataValue, 0.44, 8.74942E-09, , , 
DataValue, 0.42000000000000004, 7.75482E-09, , , 
DataValue, 0.4, 6.84676E-09, , , 
DataValue, 0.38, 6.23816E-09, , , 
DataValue, 0.36000000000000004, 5.53152E-09, , , 
DataValue, 0.34, 4.86678E-09, , , 
DataValue, 0.32, 4.26065E-09, , , 
DataValue, 0.3, 3.70747E-09, , , 
DataValue, 0.28, 3.20639E-09, , , 
DataValue, 0.26, 2.75342E-09, , , 
DataValue, 0.24000000000000002, 2.34569E-09, , , 
DataValue, 0.22, 1.97762E-09, , , 
DataValue, 0.2, 1.64984E-09, , , 
DataValue, 0.18000000000000002, 1.35643E-09, , , 
DataValue, 0.16, 1.09456E-09, , , 
DataValue, 0.14, 8.774850000000001E-10, , , 
DataValue, 0.12000000000000001, 6.74537E-10, , , 
DataValue, 0.1, 4.93852E-10, , , 
DataValue, 0.08, 3.3219800000000004E-10, , , 
DataValue, 0.060000000000000005, 1.86088E-10, , , 
DataValue, 0.04, 5.688E-11, , , 
DataValue, 0.02, -6.2409E-11, , , 
DataValue, 0, -1.8370300000000002E-10, , , 
DataValue, -0.02, -2.99084E-10, , , 
DataValue, -0.04, -4.1643100000000004E-10, , , 
DataValue, -0.060000000000000005, -5.3928400000000006E-10, , , 
DataValue, -0.08, -6.7218300000000008E-10, , , 
DataValue, -0.1, -8.1706100000000008E-10, , , 
DataValue, -0.12000000000000001, -1.00137E-09, , , 
DataValue, -0.14, -1.1716399999999999E-09, , , 
DataValue, -0.16, -1.37501E-09, , , 
DataValue, -0.18000000000000002, -1.6028E-09, , , 
DataValue, -0.2, -1.85996E-09, , , 
DataValue, -0.22, -2.14436E-09, , , 
DataValue, -0.24000000000000002, -2.45952E-09, , , 
DataValue, -0.26, -2.8142E-09, , , 
DataValue, -0.28, -3.20033E-09, , , 
DataValue, -0.3, -3.6347E-09, , , 
DataValue, -0.32, -4.10567E-09, , , 
DataValue, -0.34, -4.63096E-09, , , 
DataValue, -0.36000000000000004, -5.20415E-09, , , 
DataValue, -0.38, -5.83931E-09, , , 
DataValue, -0.4, -6.53364E-09, , , 
DataValue, -0.42000000000000004, -7.29448E-09, , , 
DataValue, -0.44, -8.12444E-09, , , 
DataValue, -0.46, -9.0369E-09, , , 
DataValue, -0.48000000000000004, -1.0040299999999999E-08, , , 
DataValue, -0.5, -1.1501199999999999E-08, , , 
DataValue, -0.52, -1.2819199999999998E-08, , , 
DataValue, -0.54, -1.4194899999999999E-08, , , 
DataValue, -0.56, -1.5650299999999998E-08, , , 
DataValue, -0.58000000000000007, -1.72175E-08, , , 
DataValue, -0.6, -1.8891499999999997E-08, , , 
DataValue, -0.62, -2.0703699999999998E-08, , , 
DataValue, -0.64, -2.26658E-08, , , 
DataValue, -0.66, -2.4780499999999998E-08, , , 
DataValue, -0.68, -2.7044799999999997E-08, , , 
DataValue, -0.70000000000000007, -2.9486299999999996E-08, , , 
DataValue, -0.72000000000000008, -3.2128099999999994E-08, , , 
DataValue, -0.74, -3.496E-08, , , 
DataValue, -0.76, -3.80584E-08, , , 
DataValue, -0.78, -4.1334799999999995E-08, , , 
DataValue, -0.8, -4.48853E-08, , , 
DataValue, -0.82000000000000006, -4.8688799999999996E-08, , , 
DataValue, -0.84000000000000008, -5.2752099999999994E-08, , , 
DataValue, -0.86, -5.7164099999999994E-08, , , 
DataValue, -0.88, -6.18267E-08, , , 
DataValue, -0.9, -6.6253999999999992E-08, , , 
DataValue, -0.92, -7.15029E-08, , , 
DataValue, -0.94000000000000006, -7.725E-08, , , 
DataValue, -0.96000000000000008, -8.3404E-08, , , 
DataValue, -0.98000000000000009, -8.9964399999999993E-08, , , 
DataValue, -1, -9.706329999999999E-08, , , 