
SetupTitle, HfO2 experiment
PrimitiveTest, I/V Sweep
TestParameter, Context.MainFrame, 4155C
TestParameter, Channel.UnitType, SMU, SMU
TestParameter, Channel.Unit, SMU1:MP, SMU2:MP
TestParameter, Channel.IName, DrainCurrent, SourceCurrent
TestParameter, Channel.VName, DrainVoltage, Ground
TestParameter, Channel.Mode, V, COMMON
TestParameter, Channel.Func, VAR1, CONST
TestParameter, Channel.Index, 
TestParameter, Channel.Time, 
TestParameter, Measurement.Port.Unit, SMU1:MP, SMU2:MP
TestParameter, Measurement.Port.SeriesResistor, NONE, NONE
TestParameter, Measurement.Port.Filter, ON, ON
TestParameter, Measurement.Primary.Locus, Double
TestParameter, Measurement.Primary.Scale, LINEAR
TestParameter, Measurement.Primary.Start, -1
TestParameter, Measurement.Primary.Stop, 1
TestParameter, Measurement.Primary.Step, 0.01
TestParameter, Measurement.Primary.Compliance, 0.1
TestParameter, Measurement.Primary.PowerCompliance, 0
TestParameter, Measurement.Aborting.Condition, STOP AT ANY ABNORMAL
TestParameter, Measurement.PostOutput.Value, START
TestParameter, Measurement.PostOutput.Retention, OFF
TestParameter, Measurement.Bias.Source, -1, 0
TestParameter, Measurement.Bias.Compliance, 0.1, 0.1
TestParameter, Measurement.Monitor.Unit, SMU1:MP, SMU2:MP
TestParameter, Measurement.Monitor.Adc, HR ADC, HR ADC
TestParameter, Measurement.Monitor.RangingMode, LIMITED, LIMITED
TestParameter, Measurement.Monitor.RangeBoundary, 1nA, 1nA
TestParameter, Measurement.Monitor.RangeRating, BY FULL RANGE, BY FULL RANGE
TestParameter, Measurement.Monitor.RangeRatingCoeff, 50, 50
TestParameter, Measurement.Timing.Hold, 0
TestParameter, Measurement.Timing.Delay, 0
TestParameter, Measurement.Adc.HighResolution.AutoZero, OFF
TestParameter, Measurement.Adc.HighResolution.Mode, PLC
TestParameter, Measurement.Adc.HighResolution.Coeff, 1
TestParameter, Measurement.Ag16440ASelector.SemiconductorRelay.Channel1, DEFAULT
TestParameter, Measurement.Ag16440ASelector.SemiconductorRelay.Channel3, DEFAULT
TestParameter, Output.Graph.Enabled, true
TestParameter, Output.Graph.AutoScaling, false
TestParameter, Output.Graph.XAxis.Data, DrainVoltage
TestParameter, Output.Graph.XAxis.Scale, Linear
TestParameter, Output.Graph.XAxis.Left, -5
TestParameter, Output.Graph.XAxis.Right, 5
TestParameter, Output.Graph.XAxis.RunTimeAutoScale, true
TestParameter, Output.Graph.YAxis.Data, DrainCurrent
TestParameter, Output.Graph.YAxis.Scale, Linear
TestParameter, Output.Graph.YAxis.Bottom, -0.1
TestParameter, Output.Graph.YAxis.Top, 0.1
TestParameter, Output.Graph.YAxis.Group, 
TestParameter, Output.Graph.YAxis.RunTimeAutoScale, true
TestParameter, Output.List.Data, V3, I3, I1
TestParameter, AutoAnalysis.Interpolation, false
TestParameter, AutoAnalysis.Var2StepCount, 1
TestParameter, AutoAnalysis.Var2StepScript, 
TestParameter, AutoAnalysis.Line1.Enabled, false
TestParameter, AutoAnalysis.Line1.Type, 1
TestParameter, AutoAnalysis.Line1.Fix, True
TestParameter, AutoAnalysis.Line1.YAxis, 0
TestParameter, AutoAnalysis.Line1.Point1.Type, 0
TestParameter, AutoAnalysis.Line1.Point1.XY.X, 
TestParameter, AutoAnalysis.Line1.Point1.XY.Y, 
TestParameter, AutoAnalysis.Line1.Point1.Data.Var, 
TestParameter, AutoAnalysis.Line1.Point1.Data.Condition, 
TestParameter, AutoAnalysis.Line1.Point1.Data.Start, false
TestParameter, AutoAnalysis.Line1.Point1.Data.StartVar, 
TestParameter, AutoAnalysis.Line1.Point1.Data.StartCondition, 
TestParameter, AutoAnalysis.Line1.Point2.Type, 0
TestParameter, AutoAnalysis.Line1.Point2.XY.X, 
TestParameter, AutoAnalysis.Line1.Point2.XY.Y, 
TestParameter, AutoAnalysis.Line1.Point2.Data.Var, 
TestParameter, AutoAnalysis.Line1.Point2.Data.Condition, 
TestParameter, AutoAnalysis.Line1.Point2.Data.Start, false
TestParameter, AutoAnalysis.Line1.Point2.Data.StartVar, 
TestParameter, AutoAnalysis.Line1.Point2.Data.StartCondition, 
TestParameter, AutoAnalysis.Line1.GradientExpr, 0
TestParameter, AutoAnalysis.Line2.Enabled, false
TestParameter, AutoAnalysis.Line2.Type, 1
TestParameter, AutoAnalysis.Line2.Fix, True
TestParameter, AutoAnalysis.Line2.YAxis, 0
TestParameter, AutoAnalysis.Line2.Point1.Type, 0
TestParameter, AutoAnalysis.Line2.Point1.XY.X, 
TestParameter, AutoAnalysis.Line2.Point1.XY.Y, 
TestParameter, AutoAnalysis.Line2.Point1.Data.Var, 
TestParameter, AutoAnalysis.Line2.Point1.Data.Condition, 
TestParameter, AutoAnalysis.Line2.Point1.Data.Start, false
TestParameter, AutoAnalysis.Line2.Point1.Data.StartVar, 
TestParameter, AutoAnalysis.Line2.Point1.Data.StartCondition, 
TestParameter, AutoAnalysis.Line2.Point2.Type, 0
TestParameter, AutoAnalysis.Line2.Point2.XY.X, 
TestParameter, AutoAnalysis.Line2.Point2.XY.Y, 
TestParameter, AutoAnalysis.Line2.Point2.Data.Var, 
TestParameter, AutoAnalysis.Line2.Point2.Data.Condition, 
TestParameter, AutoAnalysis.Line2.Point2.Data.Start, false
TestParameter, AutoAnalysis.Line2.Point2.Data.StartVar, 
TestParameter, AutoAnalysis.Line2.Point2.Data.StartCondition, 
TestParameter, AutoAnalysis.Line2.GradientExpr, 0
TestParameter, AutoAnalysis.Marker.Enabled, false
TestParameter, AutoAnalysis.Marker.Data.Var, 
TestParameter, AutoAnalysis.Marker.Data.Condition, 
TestParameter, AutoAnalysis.Marker.Data.Start, false
TestParameter, AutoAnalysis.Marker.Data.StartVar, 
TestParameter, AutoAnalysis.Marker.Data.StartCondition, 
MetaData, TestRecord.EntryPoint, true
MetaData, TestRecord.RecordTime, 05/10/2022 11:42:43
MetaData, TestRecord.TestTarget, 
MetaData, TestRecord.IterationIndex, 120
MetaData, TestRecord.Preservation, true
MetaData, TestRecord.Flag, 
MetaData, TestRecord.Remarks, 300 500 60 1 2 R
MetaData, TestRecord.LinkKey, 3f51a34e-952f-41c7-ab75-9044cf103226
MetaData, TestRecord.Parameters, 
Dimension1, 402, 402, 402, 402, 402
Dimension2, 1, 1, 1, 1, 1
DataName, DrainVoltage, DrainCurrent, V3, I3, I1
DataValue, -1, -0.0022817700000000002, , , 
DataValue, -0.9900000000000001, -0.00226285, , , 
DataValue, -0.98000000000000009, -0.00223747, , , 
DataValue, -0.97000000000000008, -0.00221395, , , 
DataValue, -0.96000000000000008, -0.0021877900000000002, , , 
DataValue, -0.95000000000000007, -0.0021665, , , 
DataValue, -0.94000000000000006, -0.00214391, , , 
DataValue, -0.93, -0.00212066, , , 
DataValue, -0.92, -0.00209759, , , 
DataValue, -0.91, -0.0020721900000000002, , , 
DataValue, -0.9, -0.00204938, , , 
DataValue, -0.89, -0.00202536, , , 
DataValue, -0.88, -0.00200168, , , 
DataValue, -0.87, -0.0019772, , , 
DataValue, -0.86, -0.00195377, , , 
DataValue, -0.85000000000000009, -0.00192958, , , 
DataValue, -0.84000000000000008, -0.00190606, , , 
DataValue, -0.83000000000000007, -0.0018833, , , 
DataValue, -0.82000000000000006, -0.00185984, , , 
DataValue, -0.81, -0.0018360100000000001, , , 
DataValue, -0.8, -0.00181117, , , 
DataValue, -0.79, -0.00178727, , , 
DataValue, -0.78, -0.00176307, , , 
DataValue, -0.77, -0.00173871, , , 
DataValue, -0.76, -0.00171536, , , 
DataValue, -0.75, -0.00169196, , , 
DataValue, -0.74, -0.0016678300000000001, , , 
DataValue, -0.73, -0.0016434400000000001, , , 
DataValue, -0.72000000000000008, -0.00161834, , , 
DataValue, -0.71000000000000008, -0.00159569, , , 
DataValue, -0.70000000000000007, -0.00157127, , , 
DataValue, -0.69000000000000006, -0.0015475, , , 
DataValue, -0.68, -0.00152324, , , 
DataValue, -0.67, -0.0014992, , , 
DataValue, -0.66, -0.00147538, , , 
DataValue, -0.65, -0.00145134, , , 
DataValue, -0.64, -0.00142783, , , 
DataValue, -0.63, -0.00140399, , , 
DataValue, -0.62, -0.00137963, , , 
DataValue, -0.61, -0.0013563, , , 
DataValue, -0.6, -0.00133245, , , 
DataValue, -0.59000000000000008, -0.0013085500000000001, , , 
DataValue, -0.58000000000000007, -0.00128459, , , 
DataValue, -0.57000000000000006, -0.00126057, , , 
DataValue, -0.56, -0.00123725, , , 
DataValue, -0.55, -0.00121366, , , 
DataValue, -0.54, -0.0011904, , , 
DataValue, -0.53, -0.00116641, , , 
DataValue, -0.52, -0.0011433300000000001, , , 
DataValue, -0.51, -0.00111923, , , 
DataValue, -0.5, -0.00109557, , , 
DataValue, -0.49000000000000005, -0.0010718, , , 
DataValue, -0.48000000000000004, -0.00104812, , , 
DataValue, -0.47000000000000003, -0.00102455, , , 
DataValue, -0.46, -0.0010013700000000001, , , 
DataValue, -0.45, -0.00097755300000000015, , , 
DataValue, -0.44, -0.000954113, , , 
DataValue, -0.43, -0.00093103500000000009, , , 
DataValue, -0.42000000000000004, -0.0009075550000000001, , , 
DataValue, -0.41000000000000003, -0.000884084, , , 
DataValue, -0.4, -0.000860748, , , 
DataValue, -0.39, -0.00083782000000000008, , , 
DataValue, -0.38, -0.000814996, , , 
DataValue, -0.37, -0.00079247700000000009, , , 
DataValue, -0.36000000000000004, -0.00076949200000000009, , , 
DataValue, -0.35000000000000003, -0.000746673, , , 
DataValue, -0.34, -0.0007242450000000001, , , 
DataValue, -0.33, -0.00070161600000000007, , , 
DataValue, -0.32, -0.000679145, , , 
DataValue, -0.31, -0.00065655400000000006, , , 
DataValue, -0.3, -0.000634495, , , 
DataValue, -0.29000000000000004, -0.00061214700000000006, , , 
DataValue, -0.28, -0.00058999000000000009, , , 
DataValue, -0.27, -0.00056801000000000009, , , 
DataValue, -0.26, -0.00054625000000000008, , , 
DataValue, -0.25, -0.00052433, , , 
DataValue, -0.24000000000000002, -0.000502445, , , 
DataValue, -0.23, -0.00048059800000000005, , , 
DataValue, -0.22, -0.00045922300000000003, , , 
DataValue, -0.21000000000000002, -0.000437875, , , 
DataValue, -0.2, -0.000416378, , , 
DataValue, -0.19, -0.00039490500000000003, , , 
DataValue, -0.18000000000000002, -0.000373495, , , 
DataValue, -0.17, -0.000352319, , , 
DataValue, -0.16, -0.000331353, , , 
DataValue, -0.15, -0.000310369, , , 
DataValue, -0.14, -0.00028930700000000004, , , 
DataValue, -0.13, -0.000268265, , , 
DataValue, -0.12000000000000001, -0.00024751300000000004, , , 
DataValue, -0.11, -0.000226698, , , 
DataValue, -0.1, -0.00020597600000000002, , , 
DataValue, -0.090000000000000011, -0.000185322, , , 
DataValue, -0.08, -0.000164622, , , 
DataValue, -0.07, -0.000143954, , , 
DataValue, -0.060000000000000005, -0.000123266, , , 
DataValue, -0.05, -0.00010277800000000001, , , 
DataValue, -0.04, -8.2135700000000007E-05, , , 
DataValue, -0.030000000000000002, -6.16662E-05, , , 
DataValue, -0.02, -4.108E-05, , , 
DataValue, -0.01, -2.05031E-05, , , 
DataValue, 0, -5.6986199999999996E-08, , , 
DataValue, 0.01, 2.05074E-05, , , 
DataValue, 0.02, 4.09163E-05, , , 
DataValue, 0.030000000000000002, 6.15838E-05, , , 
DataValue, 0.04, 8.22718E-05, , , 
DataValue, 0.05, 0.00010283300000000001, , , 
DataValue, 0.060000000000000005, 0.00012335200000000002, , , 
DataValue, 0.07, 0.00014397000000000002, , , 
DataValue, 0.08, 0.000164627, , , 
DataValue, 0.090000000000000011, 0.000185304, , , 
DataValue, 0.1, 0.00020589000000000002, , , 
DataValue, 0.11, 0.00022690700000000002, , , 
DataValue, 0.12000000000000001, 0.00024766100000000004, , , 
DataValue, 0.13, 0.00026866300000000004, , , 
DataValue, 0.14, 0.00028979200000000003, , , 
DataValue, 0.15, 0.000310679, , , 
DataValue, 0.16, 0.000331856, , , 
DataValue, 0.17, 0.000353233, , , 
DataValue, 0.18000000000000002, 0.00037440300000000004, , , 
DataValue, 0.19, 0.000396005, , , 
DataValue, 0.2, 0.00041717400000000003, , , 
DataValue, 0.21000000000000002, 0.00043906100000000003, , , 
DataValue, 0.22, 0.000460427, , , 
DataValue, 0.23, 0.00048218800000000004, , , 
DataValue, 0.24000000000000002, 0.000503917, , , 
DataValue, 0.25, 0.000525596, , , 
DataValue, 0.26, 0.000547699, , , 
DataValue, 0.27, 0.00056982600000000006, , , 
DataValue, 0.28, 0.00059211700000000008, , , 
DataValue, 0.29000000000000004, 0.000614797, , , 
DataValue, 0.3, 0.000636652, , , 
DataValue, 0.31, 0.000659808, , , 
DataValue, 0.32, 0.000681837, , , 
DataValue, 0.33, 0.00070515600000000008, , , 
DataValue, 0.34, 0.00072771, , , 
DataValue, 0.35000000000000003, 0.000750594, , , 
DataValue, 0.36000000000000004, 0.00077352000000000009, , , 
DataValue, 0.37, 0.00079689000000000008, , , 
DataValue, 0.38, 0.000819962, , , 
DataValue, 0.39, 0.000843608, , , 
DataValue, 0.4, 0.00086707100000000007, , , 
DataValue, 0.41000000000000003, 0.000890398, , , 
DataValue, 0.42000000000000004, 0.000913767, , , 
DataValue, 0.43, 0.000937717, , , 
DataValue, 0.44, 0.000960724, , , 
DataValue, 0.45, 0.00098559700000000017, , , 
DataValue, 0.46, 0.001008316, , , 
DataValue, 0.47000000000000003, 0.001031907, , , 
DataValue, 0.48000000000000004, 0.001055842, , , 
DataValue, 0.49000000000000005, 0.0010800130000000001, , , 
DataValue, 0.5, 0.00110395, , , 
DataValue, 0.51, 0.0011281120000000001, , , 
DataValue, 0.52, 0.00115155, , , 
DataValue, 0.53, 0.00117547, , , 
DataValue, 0.54, 0.0011990500000000001, , , 
DataValue, 0.55, 0.0012229300000000001, , , 
DataValue, 0.56, 0.00124875, , , 
DataValue, 0.57000000000000006, 0.0012725500000000001, , , 
DataValue, 0.58000000000000007, 0.0012974500000000001, , , 
DataValue, 0.59000000000000008, 0.00132127, , , 
DataValue, 0.6, 0.0013456100000000001, , , 
DataValue, 0.61, 0.00137045, , , 
DataValue, 0.62, 0.00139499, , , 
DataValue, 0.63, 0.00141899, , , 
DataValue, 0.64, 0.00144329, , , 
DataValue, 0.65, 0.00146823, , , 
DataValue, 0.66, 0.00149219, , , 
DataValue, 0.67, 0.00151685, , , 
DataValue, 0.68, 0.00154238, , , 
DataValue, 0.69000000000000006, 0.0015662, , , 
DataValue, 0.70000000000000007, 0.0015903900000000001, , , 
DataValue, 0.71000000000000008, 0.00161447, , , 
DataValue, 0.72000000000000008, 0.00163885, , , 
DataValue, 0.73, 0.00166342, , , 
DataValue, 0.74, 0.0016883900000000001, , , 
DataValue, 0.75, 0.0017121600000000001, , , 
DataValue, 0.76, 0.00173685, , , 
DataValue, 0.77, 0.00176222, , , 
DataValue, 0.78, 0.0017871, , , 
DataValue, 0.79, 0.0018096100000000001, , , 
DataValue, 0.8, 0.00183401, , , 
DataValue, 0.81, 0.0018594500000000001, , , 
DataValue, 0.82000000000000006, 0.00188685, , , 
DataValue, 0.83000000000000007, 0.00191128, , , 
DataValue, 0.84000000000000008, 0.0019376200000000001, , , 
DataValue, 0.85000000000000009, 0.00196317, , , 
DataValue, 0.86, 0.00199114, , , 
DataValue, 0.87, 0.00201718, , , 
DataValue, 0.88, 0.00204224, , , 
DataValue, 0.89, 0.00206739, , , 
DataValue, 0.9, 0.00209289, , , 
DataValue, 0.91, 0.00211664, , , 
DataValue, 0.92, 0.00214239, , , 
DataValue, 0.93, 0.00216704, , , 
DataValue, 0.94000000000000006, 0.00219405, , , 
DataValue, 0.95000000000000007, 0.00221953, , , 
DataValue, 0.96000000000000008, 0.00224419, , , 
DataValue, 0.97000000000000008, 0.00226961, , , 
DataValue, 0.98000000000000009, 0.00230223, , , 
DataValue, 0.9900000000000001, 0.00233314, , , 
DataValue, 1, 0.00235972, , , 
DataValue, 1, 0.00236077, , , 
DataValue, 0.9900000000000001, 0.00234358, , , 
DataValue, 0.98000000000000009, 0.00231919, , , 
DataValue, 0.97000000000000008, 0.00229778, , , 
DataValue, 0.96000000000000008, 0.00227457, , , 
DataValue, 0.95000000000000007, 0.00224896, , , 
DataValue, 0.94000000000000006, 0.00222468, , , 
DataValue, 0.93, 0.00220149, , , 
DataValue, 0.92, 0.00217848, , , 
DataValue, 0.91, 0.00215313, , , 
DataValue, 0.9, 0.00212879, , , 
DataValue, 0.89, 0.00210339, , , 
DataValue, 0.88, 0.00207829, , , 
DataValue, 0.87, 0.00205425, , , 
DataValue, 0.86, 0.00202898, , , 
DataValue, 0.85000000000000009, 0.0020050800000000002, , , 
DataValue, 0.84000000000000008, 0.00198065, , , 
DataValue, 0.83000000000000007, 0.00195589, , , 
DataValue, 0.82000000000000006, 0.00193029, , , 
DataValue, 0.81, 0.0019049800000000001, , , 
DataValue, 0.8, 0.00187899, , , 
DataValue, 0.79, 0.00185455, , , 
DataValue, 0.78, 0.00182972, , , 
DataValue, 0.77, 0.00180544, , , 
DataValue, 0.76, 0.00177981, , , 
DataValue, 0.75, 0.00175676, , , 
DataValue, 0.74, 0.00173199, , , 
DataValue, 0.73, 0.00170762, , , 
DataValue, 0.72000000000000008, 0.00168296, , , 
DataValue, 0.71000000000000008, 0.00165765, , , 
DataValue, 0.70000000000000007, 0.00163219, , , 
DataValue, 0.69000000000000006, 0.00160791, , , 
DataValue, 0.68, 0.0015829400000000001, , , 
DataValue, 0.67, 0.00155774, , , 
DataValue, 0.66, 0.0015329900000000001, , , 
DataValue, 0.65, 0.00150874, , , 
DataValue, 0.64, 0.00148376, , , 
DataValue, 0.63, 0.001459, , , 
DataValue, 0.62, 0.00143371, , , 
DataValue, 0.61, 0.00140911, , , 
DataValue, 0.6, 0.00138483, , , 
DataValue, 0.59000000000000008, 0.0013599, , , 
DataValue, 0.58000000000000007, 0.00133467, , , 
DataValue, 0.57000000000000006, 0.00131093, , , 
DataValue, 0.56, 0.00128621, , , 
DataValue, 0.55, 0.00126234, , , 
DataValue, 0.54, 0.00123644, , , 
DataValue, 0.53, 0.00121217, , , 
DataValue, 0.52, 0.00118736, , , 
DataValue, 0.51, 0.00116326, , , 
DataValue, 0.5, 0.00113847, , , 
DataValue, 0.49000000000000005, 0.00111416, , , 
DataValue, 0.48000000000000004, 0.00109011, , , 
DataValue, 0.47000000000000003, 0.00106509, , , 
DataValue, 0.46, 0.00104089, , , 
DataValue, 0.45, 0.00101666, , , 
DataValue, 0.44, 0.00099228700000000012, , , 
DataValue, 0.43, 0.00096832800000000007, , , 
DataValue, 0.42000000000000004, 0.0009438090000000001, , , 
DataValue, 0.41000000000000003, 0.00091987, , , 
DataValue, 0.4, 0.00089604200000000011, , , 
DataValue, 0.39, 0.00087180900000000008, , , 
DataValue, 0.38, 0.00084838200000000006, , , 
DataValue, 0.37, 0.000824397, , , 
DataValue, 0.36000000000000004, 0.000800715, , , 
DataValue, 0.35000000000000003, 0.000776904, , , 
DataValue, 0.34, 0.000753291, , , 
DataValue, 0.33, 0.000729901, , , 
DataValue, 0.32, 0.00070615400000000007, , , 
DataValue, 0.31, 0.00068326600000000008, , , 
DataValue, 0.3, 0.00066002000000000009, , , 
DataValue, 0.29000000000000004, 0.000637139, , , 
DataValue, 0.28, 0.00061451700000000008, , , 
DataValue, 0.27, 0.000591741, , , 
DataValue, 0.26, 0.00056887700000000008, , , 
DataValue, 0.25, 0.000545439, , , 
DataValue, 0.24000000000000002, 0.000523745, , , 
DataValue, 0.23, 0.00050091900000000006, , , 
DataValue, 0.22, 0.00047861700000000003, , , 
DataValue, 0.21000000000000002, 0.00045595200000000003, , , 
DataValue, 0.2, 0.000433679, , , 
DataValue, 0.19, 0.00041210700000000004, , , 
DataValue, 0.18000000000000002, 0.00038961400000000004, , , 
DataValue, 0.17, 0.000367673, , , 
DataValue, 0.16, 0.00034575000000000003, , , 
DataValue, 0.15, 0.000323363, , , 
DataValue, 0.14, 0.00030184, , , 
DataValue, 0.13, 0.00027972500000000004, , , 
DataValue, 0.12000000000000001, 0.000258168, , , 
DataValue, 0.11, 0.00023655300000000002, , , 
DataValue, 0.1, 0.00021464000000000002, , , 
DataValue, 0.090000000000000011, 0.00019335900000000002, , , 
DataValue, 0.08, 0.000171545, , , 
DataValue, 0.07, 0.000150018, , , 
DataValue, 0.060000000000000005, 0.000128591, , , 
DataValue, 0.05, 0.00010703100000000001, , , 
DataValue, 0.04, 8.5869500000000009E-05, , , 
DataValue, 0.030000000000000002, 6.42496E-05, , , 
DataValue, 0.02, 4.27525E-05, , , 
DataValue, 0.01, 2.13775E-05, , , 
DataValue, 0, -6.15212E-08, , , 
DataValue, -0.01, -2.14073E-05, , , 
DataValue, -0.02, -4.2899300000000004E-05, , , 
DataValue, -0.030000000000000002, -6.44116E-05, , , 
DataValue, -0.04, -8.57969E-05, , , 
DataValue, -0.05, -0.00010730660000000001, , , 
DataValue, -0.060000000000000005, -0.00012862, , , 
DataValue, -0.07, -0.00015024100000000001, , , 
DataValue, -0.08, -0.00017193700000000002, , , 
DataValue, -0.090000000000000011, -0.00019346400000000002, , , 
DataValue, -0.1, -0.00021506200000000002, , , 
DataValue, -0.11, -0.00023661500000000002, , , 
DataValue, -0.12000000000000001, -0.00025836, , , 
DataValue, -0.13, -0.000280171, , , 
DataValue, -0.14, -0.00030203500000000003, , , 
DataValue, -0.15, -0.000323817, , , 
DataValue, -0.16, -0.000345729, , , 
DataValue, -0.17, -0.000367647, , , 
DataValue, -0.18000000000000002, -0.000389888, , , 
DataValue, -0.19, -0.000412002, , , 
DataValue, -0.2, -0.00043443100000000004, , , 
DataValue, -0.21000000000000002, -0.00045630000000000003, , , 
DataValue, -0.22, -0.000478954, , , 
DataValue, -0.23, -0.00050107200000000008, , , 
DataValue, -0.24000000000000002, -0.000524177, , , 
DataValue, -0.25, -0.000546466, , , 
DataValue, -0.26, -0.000569774, , , 
